#   Hz   S  RI   R   50
!
0.000000e+00 5.411872e-03 0.000000e+00 9.945714e-01 0.000000e+00 9.945655e-01 0.000000e+00 5.446342e-03 0.000000e+00
1.000000e+08 5.411961e-03 2.586411e-05 9.945709e-01 -7.518807e-04 9.945650e-01 -7.515642e-04 5.446691e-03 3.278048e-05
2.000000e+08 5.412229e-03 5.172138e-05 9.945694e-01 -1.503752e-03 9.945635e-01 -1.503119e-03 5.447736e-03 6.555223e-05
3.000000e+08 5.412676e-03 7.756496e-05 9.945669e-01 -2.255602e-03 9.945610e-01 -2.254653e-03 5.449478e-03 9.830653e-05
4.000000e+08 5.413300e-03 1.033880e-04 9.945635e-01 -3.007423e-03 9.945576e-01 -3.006157e-03 5.451915e-03 1.310347e-04
5.000000e+08 5.414102e-03 1.291837e-04 9.945590e-01 -3.759204e-03 9.945531e-01 -3.757622e-03 5.455048e-03 1.637279e-04
6.000000e+08 5.415081e-03 1.549453e-04 9.945536e-01 -4.510936e-03 9.945477e-01 -4.509037e-03 5.458875e-03 1.963777e-04
7.000000e+08 5.416235e-03 1.806660e-04 9.945471e-01 -5.262608e-03 9.945413e-01 -5.260392e-03 5.463395e-03 2.289753e-04
8.000000e+08 5.417563e-03 2.063391e-04 9.945397e-01 -6.014210e-03 9.945339e-01 -6.011678e-03 5.468608e-03 2.615121e-04
9.000000e+08 5.419063e-03 2.319578e-04 9.945313e-01 -6.765733e-03 9.945255e-01 -6.762885e-03 5.474510e-03 2.939795e-04
1.000000e+09 5.420736e-03 2.575156e-04 9.945220e-01 -7.517167e-03 9.945162e-01 -7.514003e-03 5.481101e-03 3.263691e-04
1.100000e+09 5.422577e-03 2.830057e-04 9.945116e-01 -8.268503e-03 9.945059e-01 -8.265022e-03 5.488379e-03 3.586724e-04
1.200000e+09 5.424586e-03 3.084217e-04 9.945003e-01 -9.019731e-03 9.944946e-01 -9.015933e-03 5.496342e-03 3.908809e-04
1.300000e+09 5.426761e-03 3.337570e-04 9.944880e-01 -9.770841e-03 9.944823e-01 -9.766727e-03 5.504986e-03 4.229864e-04
1.400000e+09 5.429099e-03 3.590053e-04 9.944747e-01 -1.052182e-02 9.944690e-01 -1.051739e-02 5.514311e-03 4.549805e-04
1.500000e+09 5.431597e-03 3.841600e-04 9.944605e-01 -1.127267e-02 9.944548e-01 -1.126792e-02 5.524313e-03 4.868550e-04
1.600000e+09 5.434254e-03 4.092150e-04 9.944453e-01 -1.202337e-02 9.944397e-01 -1.201831e-02 5.534989e-03 5.186019e-04
1.700000e+09 5.437066e-03 4.341640e-04 9.944291e-01 -1.277392e-02 9.944235e-01 -1.276854e-02 5.546336e-03 5.502130e-04
1.800000e+09 5.440030e-03 4.590009e-04 9.944120e-01 -1.352430e-02 9.944065e-01 -1.351861e-02 5.558351e-03 5.816804e-04
1.900000e+09 5.443144e-03 4.837196e-04 9.943939e-01 -1.427451e-02 9.943884e-01 -1.426850e-02 5.571031e-03 6.129963e-04
2.000000e+09 5.446403e-03 5.083141e-04 9.943749e-01 -1.502454e-02 9.943694e-01 -1.501821e-02 5.584372e-03 6.441529e-04
2.100000e+09 5.449805e-03 5.327786e-04 9.943549e-01 -1.577438e-02 9.943495e-01 -1.576774e-02 5.598370e-03 6.751425e-04
2.200000e+09 5.453346e-03 5.571072e-04 9.943340e-01 -1.652402e-02 9.943286e-01 -1.651706e-02 5.613022e-03 7.059576e-04
2.300000e+09 5.457022e-03 5.812944e-04 9.943121e-01 -1.727345e-02 9.943068e-01 -1.726618e-02 5.628323e-03 7.365908e-04
2.400000e+09 5.460829e-03 6.053344e-04 9.942894e-01 -1.802267e-02 9.942841e-01 -1.801508e-02 5.644269e-03 7.670347e-04
2.500000e+09 5.464763e-03 6.292220e-04 9.942656e-01 -1.877167e-02 9.942604e-01 -1.876376e-02 5.660856e-03 7.972821e-04
2.600000e+09 5.468821e-03 6.529516e-04 9.942410e-01 -1.952043e-02 9.942358e-01 -1.951221e-02 5.678079e-03 8.273259e-04
2.700000e+09 5.472998e-03 6.765181e-04 9.942154e-01 -2.026896e-02 9.942103e-01 -2.026042e-02 5.695934e-03 8.571592e-04
2.800000e+09 5.477289e-03 6.999163e-04 9.941889e-01 -2.101724e-02 9.941839e-01 -2.100838e-02 5.714416e-03 8.867752e-04
2.900000e+09 5.481690e-03 7.231412e-04 9.941616e-01 -2.176526e-02 9.941565e-01 -2.175609e-02 5.733519e-03 9.161671e-04
3.000000e+09 5.486196e-03 7.461880e-04 9.941333e-01 -2.251303e-02 9.941283e-01 -2.250354e-02 5.753240e-03 9.453285e-04
3.100000e+09 5.490803e-03 7.690519e-04 9.941041e-01 -2.326052e-02 9.940992e-01 -2.325072e-02 5.773571e-03 9.742528e-04
3.200000e+09 5.495506e-03 7.917283e-04 9.940740e-01 -2.400775e-02 9.940692e-01 -2.399763e-02 5.794510e-03 1.002934e-03
3.300000e+09 5.500299e-03 8.142127e-04 9.940430e-01 -2.475469e-02 9.940383e-01 -2.474426e-02 5.816048e-03 1.031366e-03
3.400000e+09 5.505178e-03 8.365008e-04 9.940112e-01 -2.550134e-02 9.940065e-01 -2.549059e-02 5.838183e-03 1.059542e-03
3.500000e+09 5.510137e-03 8.585883e-04 9.939785e-01 -2.624769e-02 9.939738e-01 -2.623663e-02 5.860907e-03 1.087457e-03
3.600000e+09 5.515171e-03 8.804711e-04 9.939449e-01 -2.699375e-02 9.939403e-01 -2.698238e-02 5.884214e-03 1.115105e-03
3.700000e+09 5.520276e-03 9.021453e-04 9.939104e-01 -2.773950e-02 9.939059e-01 -2.772781e-02 5.908100e-03 1.142481e-03
3.800000e+09 5.525444e-03 9.236071e-04 9.938751e-01 -2.848494e-02 9.938707e-01 -2.847293e-02 5.932558e-03 1.169579e-03
3.900000e+09 5.530671e-03 9.448528e-04 9.938390e-01 -2.923006e-02 9.938346e-01 -2.921774e-02 5.957582e-03 1.196394e-03
4.000000e+09 5.535952e-03 9.658790e-04 9.938020e-01 -2.997485e-02 9.937977e-01 -2.996222e-02 5.983166e-03 1.222921e-03
4.100000e+09 5.541280e-03 9.866822e-04 9.937641e-01 -3.071932e-02 9.937599e-01 -3.070637e-02 6.009304e-03 1.249156e-03
4.200000e+09 5.546650e-03 1.007259e-03 9.937255e-01 -3.146345e-02 9.937214e-01 -3.145019e-02 6.035989e-03 1.275092e-03
4.300000e+09 5.552055e-03 1.027607e-03 9.936860e-01 -3.220725e-02 9.936820e-01 -3.219368e-02 6.063216e-03 1.300727e-03
4.400000e+09 5.557491e-03 1.047723e-03 9.936457e-01 -3.295070e-02 9.936417e-01 -3.293681e-02 6.090977e-03 1.326054e-03
4.500000e+09 5.562952e-03 1.067603e-03 9.936046e-01 -3.369381e-02 9.936007e-01 -3.367961e-02 6.119267e-03 1.351071e-03
4.600000e+09 5.568431e-03 1.087246e-03 9.935627e-01 -3.443656e-02 9.935589e-01 -3.442205e-02 6.148079e-03 1.375773e-03
4.700000e+09 5.573922e-03 1.106649e-03 9.935200e-01 -3.517896e-02 9.935163e-01 -3.516413e-02 6.177406e-03 1.400156e-03
4.800000e+09 5.579419e-03 1.125810e-03 9.934765e-01 -3.592100e-02 9.934729e-01 -3.590586e-02 6.207242e-03 1.424217e-03
4.900000e+09 5.584917e-03 1.144726e-03 9.934322e-01 -3.666267e-02 9.934287e-01 -3.664722e-02 6.237580e-03 1.447951e-03
5.000000e+09 5.590409e-03 1.163395e-03 9.933871e-01 -3.740398e-02 9.933837e-01 -3.738822e-02 6.268414e-03 1.471356e-03
5.100000e+09 5.595890e-03 1.181816e-03 9.933413e-01 -3.814492e-02 9.933380e-01 -3.812885e-02 6.299737e-03 1.494428e-03
5.200000e+09 5.601352e-03 1.199986e-03 9.932947e-01 -3.888549e-02 9.932915e-01 -3.886910e-02 6.331542e-03 1.517164e-03
5.300000e+09 5.606790e-03 1.217905e-03 9.932474e-01 -3.962568e-02 9.932443e-01 -3.960899e-02 6.363823e-03 1.539561e-03
5.400000e+09 5.612198e-03 1.235570e-03 9.931993e-01 -4.036550e-02 9.931963e-01 -4.034849e-02 6.396572e-03 1.561616e-03
5.500000e+09 5.617570e-03 1.252980e-03 9.931505e-01 -4.110493e-02 9.931476e-01 -4.108762e-02 6.429783e-03 1.583327e-03
5.600000e+09 5.622900e-03 1.270135e-03 9.931010e-01 -4.184399e-02 9.930981e-01 -4.182636e-02 6.463450e-03 1.604692e-03
5.700000e+09 5.628180e-03 1.287032e-03 9.930507e-01 -4.258266e-02 9.930479e-01 -4.256472e-02 6.497566e-03 1.625707e-03
5.800000e+09 5.633407e-03 1.303672e-03 9.929997e-01 -4.332094e-02 9.929971e-01 -4.330269e-02 6.532123e-03 1.646371e-03
5.900000e+09 5.638572e-03 1.320054e-03 9.929480e-01 -4.405884e-02 9.929455e-01 -4.404028e-02 6.567116e-03 1.666682e-03
6.000000e+09 5.643670e-03 1.336176e-03 9.928956e-01 -4.479634e-02 9.928931e-01 -4.477748e-02 6.602537e-03 1.686638e-03
6.100000e+09 5.648695e-03 1.352039e-03 9.928425e-01 -4.553346e-02 9.928402e-01 -4.551429e-02 6.638380e-03 1.706237e-03
6.200000e+09 5.653642e-03 1.367642e-03 9.927887e-01 -4.627019e-02 9.927865e-01 -4.625071e-02 6.674639e-03 1.725477e-03
6.300000e+09 5.658503e-03 1.382984e-03 9.927342e-01 -4.700652e-02 9.927321e-01 -4.698673e-02 6.711306e-03 1.744359e-03
6.400000e+09 5.663273e-03 1.398067e-03 9.926791e-01 -4.774246e-02 9.926771e-01 -4.772237e-02 6.748375e-03 1.762879e-03
6.500000e+09 5.667946e-03 1.412889e-03 9.926233e-01 -4.847801e-02 9.926213e-01 -4.845761e-02 6.785839e-03 1.781037e-03
6.600000e+09 5.672516e-03 1.427451e-03 9.925668e-01 -4.921316e-02 9.925650e-01 -4.919245e-02 6.823693e-03 1.798832e-03
6.700000e+09 5.676977e-03 1.441754e-03 9.925097e-01 -4.994792e-02 9.925079e-01 -4.992691e-02 6.861929e-03 1.816264e-03
6.800000e+09 5.681324e-03 1.455797e-03 9.924519e-01 -5.068229e-02 9.924503e-01 -5.066097e-02 6.900541e-03 1.833331e-03
6.900000e+09 5.685550e-03 1.469582e-03 9.923935e-01 -5.141626e-02 9.923919e-01 -5.139464e-02 6.939522e-03 1.850033e-03
7.000000e+09 5.689649e-03 1.483109e-03 9.923344e-01 -5.214984e-02 9.923330e-01 -5.212791e-02 6.978867e-03 1.866369e-03
7.100000e+09 5.693617e-03 1.496378e-03 9.922747e-01 -5.288303e-02 9.922734e-01 -5.286080e-02 7.018569e-03 1.882340e-03
7.200000e+09 5.697447e-03 1.509392e-03 9.922144e-01 -5.361582e-02 9.922132e-01 -5.359329e-02 7.058622e-03 1.897945e-03
7.300000e+09 5.701134e-03 1.522150e-03 9.921535e-01 -5.434823e-02 9.921524e-01 -5.432539e-02 7.099020e-03 1.913183e-03
7.400000e+09 5.704672e-03 1.534653e-03 9.920919e-01 -5.508024e-02 9.920910e-01 -5.505710e-02 7.139755e-03 1.928056e-03
7.500000e+09 5.708056e-03 1.546904e-03 9.920298e-01 -5.581186e-02 9.920289e-01 -5.578842e-02 7.180824e-03 1.942563e-03
7.600000e+09 5.711280e-03 1.558903e-03 9.919670e-01 -5.654310e-02 9.919663e-01 -5.651935e-02 7.222219e-03 1.956705e-03
7.700000e+09 5.714340e-03 1.570652e-03 9.919037e-01 -5.727394e-02 9.919031e-01 -5.724990e-02 7.263934e-03 1.970481e-03
7.800000e+09 5.717229e-03 1.582153e-03 9.918398e-01 -5.800440e-02 9.918393e-01 -5.798006e-02 7.305965e-03 1.983894e-03
7.900000e+09 5.719942e-03 1.593406e-03 9.917753e-01 -5.873448e-02 9.917749e-01 -5.870984e-02 7.348304e-03 1.996942e-03
8.000000e+09 5.722475e-03 1.604414e-03 9.917102e-01 -5.946418e-02 9.917099e-01 -5.943924e-02 7.390946e-03 2.009627e-03
8.100000e+09 5.724823e-03 1.615179e-03 9.916445e-01 -6.019349e-02 9.916444e-01 -6.016826e-02 7.433886e-03 2.021950e-03
8.200000e+09 5.726980e-03 1.625702e-03 9.915783e-01 -6.092243e-02 9.915783e-01 -6.089690e-02 7.477119e-03 2.033912e-03
8.300000e+09 5.728941e-03 1.635985e-03 9.915116e-01 -6.165099e-02 9.915116e-01 -6.162516e-02 7.520638e-03 2.045513e-03
8.400000e+09 5.730702e-03 1.646031e-03 9.914443e-01 -6.237917e-02 9.914444e-01 -6.235305e-02 7.564438e-03 2.056755e-03
8.500000e+09 5.732258e-03 1.655842e-03 9.913764e-01 -6.310699e-02 9.913767e-01 -6.308057e-02 7.608514e-03 2.067639e-03
8.600000e+09 5.733604e-03 1.665419e-03 9.913080e-01 -6.383443e-02 9.913084e-01 -6.380772e-02 7.652862e-03 2.078167e-03
8.700000e+09 5.734735e-03 1.674765e-03 9.912390e-01 -6.456150e-02 9.912396e-01 -6.453450e-02 7.697474e-03 2.088339e-03
8.800000e+09 5.735648e-03 1.683884e-03 9.911696e-01 -6.528821e-02 9.911702e-01 -6.526092e-02 7.742348e-03 2.098157e-03
8.900000e+09 5.736338e-03 1.692776e-03 9.910995e-01 -6.601456e-02 9.911003e-01 -6.598698e-02 7.787477e-03 2.107623e-03
9.000000e+09 5.736800e-03 1.701444e-03 9.910290e-01 -6.674055e-02 9.910299e-01 -6.671268e-02 7.832857e-03 2.116738e-03
9.100000e+09 5.737030e-03 1.709892e-03 9.909580e-01 -6.746618e-02 9.909590e-01 -6.743802e-02 7.878483e-03 2.125504e-03
9.200000e+09 5.737024e-03 1.718121e-03 9.908864e-01 -6.819146e-02 9.908875e-01 -6.816301e-02 7.924351e-03 2.133923e-03
9.300000e+09 5.736777e-03 1.726135e-03 9.908144e-01 -6.891639e-02 9.908156e-01 -6.888765e-02 7.970455e-03 2.141997e-03
9.400000e+09 5.736287e-03 1.733936e-03 9.907418e-01 -6.964097e-02 9.907431e-01 -6.961194e-02 8.016791e-03 2.149727e-03
9.500000e+09 5.735549e-03 1.741527e-03 9.906687e-01 -7.036520e-02 9.906702e-01 -7.033589e-02 8.063356e-03 2.157115e-03
9.600000e+09 5.734558e-03 1.748911e-03 9.905951e-01 -7.108909e-02 9.905967e-01 -7.105949e-02 8.110144e-03 2.164163e-03
9.700000e+09 5.733312e-03 1.756090e-03 9.905211e-01 -7.181265e-02 9.905228e-01 -7.178276e-02 8.157151e-03 2.170874e-03
9.800000e+09 5.731807e-03 1.763068e-03 9.904465e-01 -7.253586e-02 9.904483e-01 -7.250570e-02 8.204373e-03 2.177250e-03
9.900000e+09 5.730039e-03 1.769848e-03 9.903715e-01 -7.325875e-02 9.903734e-01 -7.322830e-02 8.251807e-03 2.183292e-03
1.000000e+10 5.728005e-03 1.776433e-03 9.902960e-01 -7.398131e-02 9.902980e-01 -7.395058e-02 8.299448e-03 2.189002e-03
1.010000e+10 5.725701e-03 1.782825e-03 9.902200e-01 -7.470354e-02 9.902221e-01 -7.467253e-02 8.347292e-03 2.194384e-03
1.020000e+10 5.723124e-03 1.789028e-03 9.901435e-01 -7.542545e-02 9.901458e-01 -7.539416e-02 8.395335e-03 2.199439e-03
1.030000e+10 5.720271e-03 1.795046e-03 9.900666e-01 -7.614704e-02 9.900690e-01 -7.611547e-02 8.443575e-03 2.204170e-03
1.040000e+10 5.717138e-03 1.800880e-03 9.899892e-01 -7.686831e-02 9.899917e-01 -7.683647e-02 8.492007e-03 2.208579e-03
1.050000e+10 5.713724e-03 1.806535e-03 9.899113e-01 -7.758928e-02 9.899139e-01 -7.755716e-02 8.540628e-03 2.212668e-03
1.060000e+10 5.710023e-03 1.812014e-03 9.898330e-01 -7.830993e-02 9.898357e-01 -7.827754e-02 8.589434e-03 2.216440e-03
1.070000e+10 5.706035e-03 1.817320e-03 9.897542e-01 -7.903029e-02 9.897571e-01 -7.899762e-02 8.638422e-03 2.219897e-03
1.080000e+10 5.701756e-03 1.822456e-03 9.896750e-01 -7.975034e-02 9.896779e-01 -7.971740e-02 8.687589e-03 2.223042e-03
1.090000e+10 5.697183e-03 1.827425e-03 9.895953e-01 -8.047009e-02 9.895984e-01 -8.043688e-02 8.736932e-03 2.225877e-03
1.100000e+10 5.692314e-03 1.832232e-03 9.895152e-01 -8.118955e-02 9.895183e-01 -8.115607e-02 8.786447e-03 2.228405e-03
1.110000e+10 5.687146e-03 1.836878e-03 9.894346e-01 -8.190872e-02 9.894379e-01 -8.187497e-02 8.836132e-03 2.230628e-03
1.120000e+10 5.681677e-03 1.841369e-03 9.893536e-01 -8.262760e-02 9.893570e-01 -8.259359e-02 8.885984e-03 2.232548e-03
1.130000e+10 5.675905e-03 1.845706e-03 9.892721e-01 -8.334620e-02 9.892756e-01 -8.331192e-02 8.936000e-03 2.234170e-03
1.140000e+10 5.669826e-03 1.849894e-03 9.891902e-01 -8.406452e-02 9.891938e-01 -8.402998e-02 8.986178e-03 2.235494e-03
1.150000e+10 5.663440e-03 1.853935e-03 9.891078e-01 -8.478257e-02 9.891116e-01 -8.474776e-02 9.036514e-03 2.236523e-03
1.160000e+10 5.656743e-03 1.857833e-03 9.890251e-01 -8.550034e-02 9.890289e-01 -8.546528e-02 9.087007e-03 2.237261e-03
1.170000e+10 5.649734e-03 1.861593e-03 9.889418e-01 -8.621785e-02 9.889458e-01 -8.618252e-02 9.137653e-03 2.237709e-03
1.180000e+10 5.642411e-03 1.865216e-03 9.888582e-01 -8.693509e-02 9.888622e-01 -8.689950e-02 9.188451e-03 2.237871e-03
1.190000e+10 5.634772e-03 1.868706e-03 9.887741e-01 -8.765207e-02 9.887783e-01 -8.761623e-02 9.239397e-03 2.237749e-03
1.200000e+10 5.626815e-03 1.872067e-03 9.886896e-01 -8.836880e-02 9.886939e-01 -8.833269e-02 9.290491e-03 2.237345e-03
1.210000e+10 5.618539e-03 1.875303e-03 9.886047e-01 -8.908527e-02 9.886090e-01 -8.904891e-02 9.341730e-03 2.236662e-03
1.220000e+10 5.609942e-03 1.878416e-03 9.885193e-01 -8.980149e-02 9.885238e-01 -8.976488e-02 9.393111e-03 2.235704e-03
1.230000e+10 5.601021e-03 1.881411e-03 9.884336e-01 -9.051746e-02 9.884381e-01 -9.048060e-02 9.444633e-03 2.234472e-03
1.240000e+10 5.591777e-03 1.884290e-03 9.883474e-01 -9.123320e-02 9.883520e-01 -9.119608e-02 9.496294e-03 2.232968e-03
1.250000e+10 5.582207e-03 1.887056e-03 9.882607e-01 -9.194869e-02 9.882655e-01 -9.191132e-02 9.548092e-03 2.231197e-03
1.260000e+10 5.572309e-03 1.889714e-03 9.881737e-01 -9.266395e-02 9.881786e-01 -9.262633e-02 9.600025e-03 2.229160e-03
1.270000e+10 5.562084e-03 1.892267e-03 9.880863e-01 -9.337897e-02 9.880912e-01 -9.334111e-02 9.652092e-03 2.226859e-03
1.280000e+10 5.551529e-03 1.894718e-03 9.879984e-01 -9.409377e-02 9.880034e-01 -9.405566e-02 9.704291e-03 2.224298e-03
1.290000e+10 5.540643e-03 1.897070e-03 9.879101e-01 -9.480834e-02 9.879153e-01 -9.476999e-02 9.756621e-03 2.221479e-03
1.300000e+10 5.529425e-03 1.899328e-03 9.878214e-01 -9.552269e-02 9.878267e-01 -9.548409e-02 9.809080e-03 2.218405e-03
1.310000e+10 5.517874e-03 1.901493e-03 9.877323e-01 -9.623682e-02 9.877376e-01 -9.619798e-02 9.861666e-03 2.215078e-03
1.320000e+10 5.505990e-03 1.903570e-03 9.876427e-01 -9.695074e-02 9.876482e-01 -9.691166e-02 9.914379e-03 2.211500e-03
1.330000e+10 5.493771e-03 1.905561e-03 9.875528e-01 -9.766445e-02 9.875583e-01 -9.762513e-02 9.967217e-03 2.207675e-03
1.340000e+10 5.481217e-03 1.907471e-03 9.874624e-01 -9.837794e-02 9.874681e-01 -9.833839e-02 1.002018e-02 2.203604e-03
1.350000e+10 5.468326e-03 1.909302e-03 9.873717e-01 -9.909124e-02 9.873774e-01 -9.905145e-02 1.007326e-02 2.199290e-03
1.360000e+10 5.455098e-03 1.911058e-03 9.872805e-01 -9.980433e-02 9.872863e-01 -9.976431e-02 1.012647e-02 2.194736e-03
1.370000e+10 5.441533e-03 1.912742e-03 9.871889e-01 -1.005172e-01 9.871948e-01 -1.004770e-01 1.017980e-02 2.189944e-03
1.380000e+10 5.427629e-03 1.914357e-03 9.870969e-01 -1.012299e-01 9.871029e-01 -1.011894e-01 1.023324e-02 2.184917e-03
1.390000e+10 5.413387e-03 1.915906e-03 9.870045e-01 -1.019424e-01 9.870106e-01 -1.019017e-01 1.028681e-02 2.179656e-03
1.400000e+10 5.398806e-03 1.917393e-03 9.869117e-01 -1.026547e-01 9.869179e-01 -1.026138e-01 1.034049e-02 2.174165e-03
1.410000e+10 5.383884e-03 1.918821e-03 9.868184e-01 -1.033669e-01 9.868247e-01 -1.033257e-01 1.039429e-02 2.168445e-03
1.420000e+10 5.368623e-03 1.920192e-03 9.867248e-01 -1.040788e-01 9.867312e-01 -1.040374e-01 1.044821e-02 2.162499e-03
1.430000e+10 5.353022e-03 1.921511e-03 9.866307e-01 -1.047906e-01 9.866372e-01 -1.047490e-01 1.050224e-02 2.156330e-03
1.440000e+10 5.337079e-03 1.922779e-03 9.865363e-01 -1.055022e-01 9.865428e-01 -1.054604e-01 1.055639e-02 2.149939e-03
1.450000e+10 5.320796e-03 1.924001e-03 9.864414e-01 -1.062136e-01 9.864481e-01 -1.061716e-01 1.061065e-02 2.143328e-03
1.460000e+10 5.304172e-03 1.925179e-03 9.863461e-01 -1.069249e-01 9.863529e-01 -1.068826e-01 1.066503e-02 2.136501e-03
1.470000e+10 5.287207e-03 1.926316e-03 9.862505e-01 -1.076359e-01 9.862573e-01 -1.075935e-01 1.071952e-02 2.129459e-03
1.480000e+10 5.269901e-03 1.927416e-03 9.861544e-01 -1.083468e-01 9.861612e-01 -1.083042e-01 1.077412e-02 2.122204e-03
1.490000e+10 5.252253e-03 1.928480e-03 9.860579e-01 -1.090576e-01 9.860648e-01 -1.090147e-01 1.082884e-02 2.114739e-03
1.500000e+10 5.234264e-03 1.929513e-03 9.859609e-01 -1.097682e-01 9.859680e-01 -1.097251e-01 1.088367e-02 2.107065e-03
1.510000e+10 5.215934e-03 1.930517e-03 9.858636e-01 -1.104786e-01 9.858707e-01 -1.104353e-01 1.093861e-02 2.099185e-03
1.520000e+10 5.197263e-03 1.931495e-03 9.857659e-01 -1.111889e-01 9.857731e-01 -1.111454e-01 1.099366e-02 2.091101e-03
1.530000e+10 5.178251e-03 1.932450e-03 9.856677e-01 -1.118990e-01 9.856750e-01 -1.118553e-01 1.104882e-02 2.082815e-03
1.540000e+10 5.158898e-03 1.933384e-03 9.855692e-01 -1.126090e-01 9.855765e-01 -1.125651e-01 1.110410e-02 2.074328e-03
1.550000e+10 5.139204e-03 1.934301e-03 9.854702e-01 -1.133188e-01 9.854776e-01 -1.132747e-01 1.115949e-02 2.065643e-03
1.560000e+10 5.119171e-03 1.935203e-03 9.853708e-01 -1.140285e-01 9.853783e-01 -1.139842e-01 1.121498e-02 2.056762e-03
1.570000e+10 5.098797e-03 1.936093e-03 9.852710e-01 -1.147381e-01 9.852786e-01 -1.146935e-01 1.127059e-02 2.047687e-03
1.580000e+10 5.078083e-03 1.936974e-03 9.851708e-01 -1.154475e-01 9.851784e-01 -1.154027e-01 1.132631e-02 2.038419e-03
1.590000e+10 5.057030e-03 1.937848e-03 9.850702e-01 -1.161567e-01 9.850779e-01 -1.161118e-01 1.138215e-02 2.028961e-03
1.600000e+10 5.035638e-03 1.938718e-03 9.849691e-01 -1.168659e-01 9.849769e-01 -1.168208e-01 1.143809e-02 2.019313e-03
1.610000e+10 5.013908e-03 1.939587e-03 9.848677e-01 -1.175749e-01 9.848755e-01 -1.175296e-01 1.149414e-02 2.009479e-03
1.620000e+10 4.991840e-03 1.940458e-03 9.847658e-01 -1.182837e-01 9.847737e-01 -1.182382e-01 1.155031e-02 1.999459e-03
1.630000e+10 4.969433e-03 1.941332e-03 9.846635e-01 -1.189925e-01 9.846714e-01 -1.189468e-01 1.160659e-02 1.989256e-03
1.640000e+10 4.946690e-03 1.942213e-03 9.845608e-01 -1.197011e-01 9.845688e-01 -1.196552e-01 1.166298e-02 1.978871e-03
1.650000e+10 4.923611e-03 1.943102e-03 9.844577e-01 -1.204096e-01 9.844657e-01 -1.203635e-01 1.171948e-02 1.968306e-03
1.660000e+10 4.900195e-03 1.944003e-03 9.843541e-01 -1.211179e-01 9.843622e-01 -1.210717e-01 1.177609e-02 1.957562e-03
