#   Hz   S  RI   R   50
!
0.000000e+00 7.947682e-03 0.000000e+00 9.920600e-01 0.000000e+00 9.920535e-01 0.000000e+00 7.948342e-03 0.000000e+00
1.000000e+08 7.947859e-03 6.849680e-05 9.920596e-01 -5.626364e-04 9.920532e-01 -5.624518e-04 7.948520e-03 6.826723e-05
2.000000e+08 7.948391e-03 1.369875e-04 9.920587e-01 -1.125264e-03 9.920522e-01 -1.124895e-03 7.949054e-03 1.365281e-04
3.000000e+08 7.949278e-03 2.054659e-04 9.920571e-01 -1.687874e-03 9.920506e-01 -1.687321e-03 7.949944e-03 2.047763e-04
4.000000e+08 7.950518e-03 2.739260e-04 9.920549e-01 -2.250458e-03 9.920484e-01 -2.249723e-03 7.951189e-03 2.730055e-04
5.000000e+08 7.952112e-03 3.423617e-04 9.920520e-01 -2.813007e-03 9.920456e-01 -2.812090e-03 7.952789e-03 3.412093e-04
6.000000e+08 7.954059e-03 4.107668e-04 9.920485e-01 -3.375512e-03 9.920421e-01 -3.374415e-03 7.954743e-03 4.093816e-04
7.000000e+08 7.956358e-03 4.791354e-04 9.920443e-01 -3.937965e-03 9.920380e-01 -3.936690e-03 7.957050e-03 4.775159e-04
8.000000e+08 7.959007e-03 5.474615e-04 9.920395e-01 -4.500356e-03 9.920333e-01 -4.498906e-03 7.959709e-03 5.456061e-04
9.000000e+08 7.962006e-03 6.157391e-04 9.920341e-01 -5.062679e-03 9.920280e-01 -5.061055e-03 7.962718e-03 6.136461e-04
1.000000e+09 7.965353e-03 6.839621e-04 9.920281e-01 -5.624923e-03 9.920220e-01 -5.623129e-03 7.966077e-03 6.816296e-04
1.100000e+09 7.969047e-03 7.521249e-04 9.920214e-01 -6.187082e-03 9.920154e-01 -6.185120e-03 7.969784e-03 7.495505e-04
1.200000e+09 7.973086e-03 8.202215e-04 9.920141e-01 -6.749145e-03 9.920082e-01 -6.747020e-03 7.973837e-03 8.174029e-04
1.300000e+09 7.977468e-03 8.882461e-04 9.920062e-01 -7.311106e-03 9.920003e-01 -7.308821e-03 7.978234e-03 8.851807e-04
1.400000e+09 7.982192e-03 9.561931e-04 9.919976e-01 -7.872956e-03 9.919919e-01 -7.870515e-03 7.982973e-03 9.528781e-04
1.500000e+09 7.987254e-03 1.024057e-03 9.919885e-01 -8.434687e-03 9.919829e-01 -8.432094e-03 7.988051e-03 1.020489e-03
1.600000e+09 7.992653e-03 1.091832e-03 9.919787e-01 -8.996291e-03 9.919732e-01 -8.993551e-03 7.993468e-03 1.088008e-03
1.700000e+09 7.998387e-03 1.159512e-03 9.919683e-01 -9.557761e-03 9.919629e-01 -9.554878e-03 7.999219e-03 1.155429e-03
1.800000e+09 8.004452e-03 1.227093e-03 9.919573e-01 -1.011909e-02 9.919521e-01 -1.011607e-02 8.005303e-03 1.222747e-03
1.900000e+09 8.010847e-03 1.294568e-03 9.919457e-01 -1.068027e-02 9.919406e-01 -1.067711e-02 8.011716e-03 1.289956e-03
2.000000e+09 8.017568e-03 1.361933e-03 9.919335e-01 -1.124129e-02 9.919285e-01 -1.123801e-02 8.018456e-03 1.357051e-03
2.100000e+09 8.024613e-03 1.429183e-03 9.919207e-01 -1.180215e-02 9.919159e-01 -1.179875e-02 8.025519e-03 1.424026e-03
2.200000e+09 8.031978e-03 1.496312e-03 9.919073e-01 -1.236283e-02 9.919027e-01 -1.235932e-02 8.032903e-03 1.490876e-03
2.300000e+09 8.039660e-03 1.563315e-03 9.918934e-01 -1.292334e-02 9.918888e-01 -1.291972e-02 8.040604e-03 1.557597e-03
2.400000e+09 8.047656e-03 1.630188e-03 9.918788e-01 -1.348367e-02 9.918744e-01 -1.347994e-02 8.048619e-03 1.624182e-03
2.500000e+09 8.055962e-03 1.696926e-03 9.918637e-01 -1.404380e-02 9.918595e-01 -1.403997e-02 8.056944e-03 1.690628e-03
2.600000e+09 8.064576e-03 1.763524e-03 9.918480e-01 -1.460374e-02 9.918439e-01 -1.459982e-02 8.065576e-03 1.756929e-03
2.700000e+09 8.073492e-03 1.829978e-03 9.918317e-01 -1.516347e-02 9.918278e-01 -1.515947e-02 8.074510e-03 1.823080e-03
2.800000e+09 8.082708e-03 1.896283e-03 9.918149e-01 -1.572299e-02 9.918112e-01 -1.571891e-02 8.083744e-03 1.889078e-03
2.900000e+09 8.092220e-03 1.962435e-03 9.917975e-01 -1.628230e-02 9.917940e-01 -1.627815e-02 8.093272e-03 1.954918e-03
3.000000e+09 8.102024e-03 2.028430e-03 9.917795e-01 -1.684139e-02 9.917762e-01 -1.683718e-02 8.103091e-03 2.020596e-03
3.100000e+09 8.112115e-03 2.094264e-03 9.917611e-01 -1.740025e-02 9.917579e-01 -1.739598e-02 8.113197e-03 2.086106e-03
3.200000e+09 8.122491e-03 2.159932e-03 9.917420e-01 -1.795888e-02 9.917391e-01 -1.795457e-02 8.123585e-03 2.151446e-03
3.300000e+09 8.133145e-03 2.225432e-03 9.917225e-01 -1.851727e-02 9.917197e-01 -1.851292e-02 8.134252e-03 2.216612e-03
3.400000e+09 8.144075e-03 2.290758e-03 9.917024e-01 -1.907543e-02 9.916998e-01 -1.907104e-02 8.145192e-03 2.281599e-03
3.500000e+09 8.155276e-03 2.355909e-03 9.916818e-01 -1.963333e-02 9.916794e-01 -1.962892e-02 8.156402e-03 2.346405e-03
3.600000e+09 8.166743e-03 2.420880e-03 9.916606e-01 -2.019099e-02 9.916584e-01 -2.018656e-02 8.167876e-03 2.411025e-03
3.700000e+09 8.178472e-03 2.485669e-03 9.916390e-01 -2.074840e-02 9.916370e-01 -2.074396e-02 8.179611e-03 2.475456e-03
3.800000e+09 8.190458e-03 2.550271e-03 9.916169e-01 -2.130555e-02 9.916151e-01 -2.130110e-02 8.191601e-03 2.539696e-03
3.900000e+09 8.202698e-03 2.614685e-03 9.915942e-01 -2.186243e-02 9.915926e-01 -2.185799e-02 8.203842e-03 2.603741e-03
4.000000e+09 8.215186e-03 2.678906e-03 9.915711e-01 -2.241906e-02 9.915697e-01 -2.241463e-02 8.216329e-03 2.667588e-03
4.100000e+09 8.227917e-03 2.742933e-03 9.915475e-01 -2.297541e-02 9.915462e-01 -2.297100e-02 8.229057e-03 2.731235e-03
4.200000e+09 8.240888e-03 2.806763e-03 9.915234e-01 -2.353149e-02 9.915223e-01 -2.352711e-02 8.242021e-03 2.794678e-03
4.300000e+09 8.254092e-03 2.870394e-03 9.914988e-01 -2.408730e-02 9.914980e-01 -2.408296e-02 8.255217e-03 2.857916e-03
4.400000e+09 8.267526e-03 2.933822e-03 9.914738e-01 -2.464284e-02 9.914731e-01 -2.463853e-02 8.268640e-03 2.920946e-03
4.500000e+09 8.281185e-03 2.997047e-03 9.914483e-01 -2.519809e-02 9.914478e-01 -2.519384e-02 8.282284e-03 2.983767e-03
4.600000e+09 8.295064e-03 3.060065e-03 9.914223e-01 -2.575307e-02 9.914220e-01 -2.574887e-02 8.296146e-03 3.046375e-03
4.700000e+09 8.309157e-03 3.122876e-03 9.913959e-01 -2.630776e-02 9.913958e-01 -2.630363e-02 8.310218e-03 3.108769e-03
4.800000e+09 8.323461e-03 3.185477e-03 9.913691e-01 -2.686217e-02 9.913692e-01 -2.685811e-02 8.324498e-03 3.170947e-03
4.900000e+09 8.337970e-03 3.247866e-03 9.913418e-01 -2.741630e-02 9.913421e-01 -2.741231e-02 8.338980e-03 3.232909e-03
5.000000e+09 8.352679e-03 3.310042e-03 9.913141e-01 -2.797014e-02 9.913146e-01 -2.796623e-02 8.353658e-03 3.294651e-03
5.100000e+09 8.367584e-03 3.372005e-03 9.912860e-01 -2.852369e-02 9.912866e-01 -2.851987e-02 8.368528e-03 3.356174e-03
5.200000e+09 8.382679e-03 3.433752e-03 9.912574e-01 -2.907695e-02 9.912582e-01 -2.907323e-02 8.383586e-03 3.417475e-03
5.300000e+09 8.397961e-03 3.495282e-03 9.912285e-01 -2.962992e-02 9.912294e-01 -2.962630e-02 8.398825e-03 3.478554e-03
5.400000e+09 8.413423e-03 3.556595e-03 9.911991e-01 -3.018261e-02 9.912003e-01 -3.017910e-02 8.414241e-03 3.539410e-03
5.500000e+09 8.429062e-03 3.617690e-03 9.911694e-01 -3.073500e-02 9.911707e-01 -3.073161e-02 8.429829e-03 3.600043e-03
5.600000e+09 8.444873e-03 3.678565e-03 9.911392e-01 -3.128711e-02 9.911407e-01 -3.128383e-02 8.445585e-03 3.660451e-03
5.700000e+09 8.460849e-03 3.739221e-03 9.911087e-01 -3.183892e-02 9.911103e-01 -3.183577e-02 8.461503e-03 3.720633e-03
5.800000e+09 8.476988e-03 3.799657e-03 9.910778e-01 -3.239045e-02 9.910795e-01 -3.238743e-02 8.477578e-03 3.780591e-03
5.900000e+09 8.493284e-03 3.859873e-03 9.910465e-01 -3.294169e-02 9.910484e-01 -3.293880e-02 8.493806e-03 3.840323e-03
6.000000e+09 8.509733e-03 3.919868e-03 9.910149e-01 -3.349264e-02 9.910169e-01 -3.348989e-02 8.510182e-03 3.899829e-03
6.100000e+09 8.526329e-03 3.979642e-03 9.909829e-01 -3.404330e-02 9.909850e-01 -3.404070e-02 8.526701e-03 3.959110e-03
6.200000e+09 8.543069e-03 4.039196e-03 9.909505e-01 -3.459368e-02 9.909528e-01 -3.459123e-02 8.543359e-03 4.018165e-03
6.300000e+09 8.559948e-03 4.098529e-03 9.909178e-01 -3.514377e-02 9.909202e-01 -3.514148e-02 8.560150e-03 4.076995e-03
6.400000e+09 8.576960e-03 4.157642e-03 9.908848e-01 -3.569358e-02 9.908872e-01 -3.569144e-02 8.577071e-03 4.135600e-03
6.500000e+09 8.594103e-03 4.216535e-03 9.908514e-01 -3.624311e-02 9.908539e-01 -3.624113e-02 8.594117e-03 4.193980e-03
6.600000e+09 8.611371e-03 4.275209e-03 9.908177e-01 -3.679236e-02 9.908203e-01 -3.679055e-02 8.611282e-03 4.252137e-03
6.700000e+09 8.628760e-03 4.333664e-03 9.907836e-01 -3.734133e-02 9.907863e-01 -3.733968e-02 8.628564e-03 4.310070e-03
6.800000e+09 8.646265e-03 4.391900e-03 9.907492e-01 -3.789002e-02 9.907520e-01 -3.788855e-02 8.645958e-03 4.367782e-03
6.900000e+09 8.663883e-03 4.449919e-03 9.907145e-01 -3.843844e-02 9.907174e-01 -3.843714e-02 8.663458e-03 4.425271e-03
7.000000e+09 8.681610e-03 4.507722e-03 9.906795e-01 -3.898659e-02 9.906825e-01 -3.898547e-02 8.681062e-03 4.482540e-03
7.100000e+09 8.699440e-03 4.565309e-03 9.906442e-01 -3.953447e-02 9.906472e-01 -3.953352e-02 8.698764e-03 4.539590e-03
7.200000e+09 8.717371e-03 4.622681e-03 9.906086e-01 -4.008208e-02 9.906116e-01 -4.008132e-02 8.716562e-03 4.596422e-03
7.300000e+09 8.735397e-03 4.679840e-03 9.905726e-01 -4.062943e-02 9.905758e-01 -4.062885e-02 8.734450e-03 4.653036e-03
7.400000e+09 8.753516e-03 4.736786e-03 9.905364e-01 -4.117652e-02 9.905396e-01 -4.117612e-02 8.752425e-03 4.709436e-03
7.500000e+09 8.771723e-03 4.793521e-03 9.904999e-01 -4.172335e-02 9.905031e-01 -4.172313e-02 8.770482e-03 4.765621e-03
7.600000e+09 8.790015e-03 4.850047e-03 9.904631e-01 -4.226992e-02 9.904663e-01 -4.226988e-02 8.788620e-03 4.821593e-03
7.700000e+09 8.808388e-03 4.906365e-03 9.904260e-01 -4.281625e-02 9.904293e-01 -4.281639e-02 8.806832e-03 4.877354e-03
7.800000e+09 8.826838e-03 4.962476e-03 9.903886e-01 -4.336232e-02 9.903919e-01 -4.336265e-02 8.825117e-03 4.932906e-03
7.900000e+09 8.845362e-03 5.018382e-03 9.903510e-01 -4.390814e-02 9.903543e-01 -4.390865e-02 8.843470e-03 4.988251e-03
8.000000e+09 8.863957e-03 5.074084e-03 9.903131e-01 -4.445373e-02 9.903163e-01 -4.445442e-02 8.861887e-03 5.043389e-03
8.100000e+09 8.882618e-03 5.129585e-03 9.902749e-01 -4.499907e-02 9.902782e-01 -4.499995e-02 8.880367e-03 5.098324e-03
8.200000e+09 8.901342e-03 5.184885e-03 9.902365e-01 -4.554418e-02 9.902397e-01 -4.554524e-02 8.898904e-03 5.153057e-03
8.300000e+09 8.920127e-03 5.239988e-03 9.901977e-01 -4.608905e-02 9.902009e-01 -4.609029e-02 8.917497e-03 5.207589e-03
8.400000e+09 8.938970e-03 5.294894e-03 9.901588e-01 -4.663370e-02 9.901619e-01 -4.663512e-02 8.936141e-03 5.261924e-03
8.500000e+09 8.957866e-03 5.349606e-03 9.901195e-01 -4.717812e-02 9.901227e-01 -4.717971e-02 8.954834e-03 5.316063e-03
8.600000e+09 8.976814e-03 5.404126e-03 9.900801e-01 -4.772232e-02 9.900832e-01 -4.772409e-02 8.973573e-03 5.370008e-03
8.700000e+09 8.995810e-03 5.458456e-03 9.900403e-01 -4.826630e-02 9.900434e-01 -4.826824e-02 8.992356e-03 5.423761e-03
8.800000e+09 9.014851e-03 5.512597e-03 9.900004e-01 -4.881006e-02 9.900033e-01 -4.881218e-02 9.011178e-03 5.477325e-03
8.900000e+09 9.033936e-03 5.566552e-03 9.899601e-01 -4.935362e-02 9.899630e-01 -4.935590e-02 9.030038e-03 5.530702e-03
9.000000e+09 9.053060e-03 5.620323e-03 9.899196e-01 -4.989697e-02 9.899225e-01 -4.989941e-02 9.048933e-03 5.583895e-03
9.100000e+09 9.072222e-03 5.673912e-03 9.898789e-01 -5.044011e-02 9.898817e-01 -5.044272e-02 9.067861e-03 5.636905e-03
9.200000e+09 9.091418e-03 5.727322e-03 9.898380e-01 -5.098306e-02 9.898407e-01 -5.098583e-02 9.086818e-03 5.689734e-03
9.300000e+09 9.110648e-03 5.780555e-03 9.897968e-01 -5.152581e-02 9.897994e-01 -5.152873e-02 9.105803e-03 5.742387e-03
9.400000e+09 9.129907e-03 5.833612e-03 9.897554e-01 -5.206837e-02 9.897579e-01 -5.207144e-02 9.124814e-03 5.794864e-03
9.500000e+09 9.149195e-03 5.886497e-03 9.897137e-01 -5.261074e-02 9.897161e-01 -5.261396e-02 9.143848e-03 5.847168e-03
9.600000e+09 9.168509e-03 5.939211e-03 9.896718e-01 -5.315293e-02 9.896741e-01 -5.315629e-02 9.162903e-03 5.899301e-03
9.700000e+09 9.187846e-03 5.991757e-03 9.896297e-01 -5.369494e-02 9.896318e-01 -5.369844e-02 9.181977e-03 5.951267e-03
9.800000e+09 9.207206e-03 6.044137e-03 9.895873e-01 -5.423677e-02 9.895894e-01 -5.424041e-02 9.201068e-03 6.003068e-03
9.900000e+09 9.226585e-03 6.096354e-03 9.895447e-01 -5.477843e-02 9.895467e-01 -5.478219e-02 9.220175e-03 6.054705e-03
1.000000e+10 9.245982e-03 6.148410e-03 9.895019e-01 -5.531993e-02 9.895037e-01 -5.532381e-02 9.239295e-03 6.106182e-03
1.010000e+10 9.265396e-03 6.200307e-03 9.894589e-01 -5.586125e-02 9.894605e-01 -5.586526e-02 9.258428e-03 6.157502e-03
1.020000e+10 9.284824e-03 6.252048e-03 9.894156e-01 -5.640242e-02 9.894171e-01 -5.640654e-02 9.277570e-03 6.208666e-03
1.030000e+10 9.304265e-03 6.303635e-03 9.893721e-01 -5.694343e-02 9.893735e-01 -5.694765e-02 9.296722e-03 6.259677e-03
1.040000e+10 9.323718e-03 6.355071e-03 9.893284e-01 -5.748429e-02 9.893296e-01 -5.748861e-02 9.315881e-03 6.310538e-03
1.050000e+10 9.343181e-03 6.406357e-03 9.892844e-01 -5.802499e-02 9.892855e-01 -5.802942e-02 9.335046e-03 6.361251e-03
1.060000e+10 9.362653e-03 6.457497e-03 9.892402e-01 -5.856555e-02 9.892412e-01 -5.857007e-02 9.354216e-03 6.411819e-03
1.070000e+10 9.382132e-03 6.508493e-03 9.891958e-01 -5.910597e-02 9.891966e-01 -5.911057e-02 9.373390e-03 6.462244e-03
1.080000e+10 9.401617e-03 6.559347e-03 9.891512e-01 -5.964625e-02 9.891519e-01 -5.965093e-02 9.392566e-03 6.512528e-03
1.090000e+10 9.421107e-03 6.610061e-03 9.891064e-01 -6.018639e-02 9.891068e-01 -6.019115e-02 9.411743e-03 6.562675e-03
1.100000e+10 9.440601e-03 6.660638e-03 9.890613e-01 -6.072640e-02 9.890616e-01 -6.073122e-02 9.430921e-03 6.612687e-03
1.110000e+10 9.460098e-03 6.711081e-03 9.890160e-01 -6.126629e-02 9.890161e-01 -6.127117e-02 9.450099e-03 6.662566e-03
1.120000e+10 9.479596e-03 6.761391e-03 9.889705e-01 -6.180604e-02 9.889705e-01 -6.181098e-02 9.469275e-03 6.712314e-03
1.130000e+10 9.499096e-03 6.811571e-03 9.889247e-01 -6.234568e-02 9.889245e-01 -6.235067e-02 9.488449e-03 6.761935e-03
1.140000e+10 9.518596e-03 6.861623e-03 9.888787e-01 -6.288520e-02 9.888784e-01 -6.289022e-02 9.507620e-03 6.811430e-03
1.150000e+10 9.538096e-03 6.911550e-03 9.888325e-01 -6.342460e-02 9.888320e-01 -6.342966e-02 9.526787e-03 6.860802e-03
1.160000e+10 9.557594e-03 6.961353e-03 9.887861e-01 -6.396389e-02 9.887854e-01 -6.396898e-02 9.545951e-03 6.910053e-03
1.170000e+10 9.577090e-03 7.011036e-03 9.887395e-01 -6.450307e-02 9.887386e-01 -6.450818e-02 9.565110e-03 6.959185e-03
1.180000e+10 9.596584e-03 7.060600e-03 9.886926e-01 -6.504215e-02 9.886915e-01 -6.504728e-02 9.584263e-03 7.008202e-03
1.190000e+10 9.616075e-03 7.110048e-03 9.886455e-01 -6.558112e-02 9.886442e-01 -6.558626e-02 9.603412e-03 7.057104e-03
1.200000e+10 9.635563e-03 7.159381e-03 9.885981e-01 -6.611999e-02 9.885967e-01 -6.612513e-02 9.622554e-03 7.105895e-03
1.210000e+10 9.655046e-03 7.208602e-03 9.885506e-01 -6.665876e-02 9.885490e-01 -6.666390e-02 9.641691e-03 7.154577e-03
1.220000e+10 9.674526e-03 7.257714e-03 9.885028e-01 -6.719744e-02 9.885010e-01 -6.720257e-02 9.660821e-03 7.203151e-03
1.230000e+10 9.694000e-03 7.306717e-03 9.884547e-01 -6.773603e-02 9.884528e-01 -6.774114e-02 9.679945e-03 7.251621e-03
1.240000e+10 9.713471e-03 7.355615e-03 9.884065e-01 -6.827452e-02 9.884043e-01 -6.827961e-02 9.699062e-03 7.299988e-03
1.250000e+10 9.732936e-03 7.404410e-03 9.883580e-01 -6.881293e-02 9.883557e-01 -6.881799e-02 9.718172e-03 7.348254e-03
1.260000e+10 9.752396e-03 7.453102e-03 9.883092e-01 -6.935126e-02 9.883068e-01 -6.935628e-02 9.737275e-03 7.396421e-03
1.270000e+10 9.771851e-03 7.501695e-03 9.882603e-01 -6.988950e-02 9.882576e-01 -6.989449e-02 9.756372e-03 7.444492e-03
1.280000e+10 9.791301e-03 7.550191e-03 9.882111e-01 -7.042766e-02 9.882082e-01 -7.043260e-02 9.775462e-03 7.492468e-03
1.290000e+10 9.810745e-03 7.598591e-03 9.881616e-01 -7.096575e-02 9.881586e-01 -7.097063e-02 9.794545e-03 7.540352e-03
1.300000e+10 9.830184e-03 7.646897e-03 9.881119e-01 -7.150376e-02 9.881088e-01 -7.150858e-02 9.813622e-03 7.588145e-03
1.310000e+10 9.849618e-03 7.695111e-03 9.880620e-01 -7.204169e-02 9.880587e-01 -7.204645e-02 9.832692e-03 7.635850e-03
1.320000e+10 9.869047e-03 7.743235e-03 9.880118e-01 -7.257956e-02 9.880083e-01 -7.258425e-02 9.851756e-03 7.683467e-03
1.330000e+10 9.888471e-03 7.791271e-03 9.879614e-01 -7.311735e-02 9.879578e-01 -7.312196e-02 9.870815e-03 7.730999e-03
1.340000e+10 9.907891e-03 7.839220e-03 9.879108e-01 -7.365508e-02 9.879069e-01 -7.365961e-02 9.889868e-03 7.778448e-03
1.350000e+10 9.927306e-03 7.887085e-03 9.878599e-01 -7.419274e-02 9.878559e-01 -7.419718e-02 9.908916e-03 7.825816e-03
1.360000e+10 9.946716e-03 7.934867e-03 9.878087e-01 -7.473034e-02 9.878046e-01 -7.473468e-02 9.927958e-03 7.873104e-03
1.370000e+10 9.966123e-03 7.982567e-03 9.877573e-01 -7.526787e-02 9.877530e-01 -7.527212e-02 9.946997e-03 7.920313e-03
1.380000e+10 9.985526e-03 8.030188e-03 9.877057e-01 -7.580534e-02 9.877012e-01 -7.580949e-02 9.966031e-03 7.967447e-03
1.390000e+10 1.000493e-02 8.077730e-03 9.876538e-01 -7.634276e-02 9.876491e-01 -7.634679e-02 9.985061e-03 8.014505e-03
1.400000e+10 1.002432e-02 8.125196e-03 9.876016e-01 -7.688011e-02 9.875968e-01 -7.688403e-02 1.000409e-02 8.061490e-03
1.410000e+10 1.004372e-02 8.172587e-03 9.875492e-01 -7.741741e-02 9.875443e-01 -7.742121e-02 1.002311e-02 8.108403e-03
1.420000e+10 1.006311e-02 8.219904e-03 9.874965e-01 -7.795465e-02 9.874915e-01 -7.795833e-02 1.004214e-02 8.155245e-03
1.430000e+10 1.008250e-02 8.267149e-03 9.874436e-01 -7.849183e-02 9.874384e-01 -7.849539e-02 1.006116e-02 8.202019e-03
1.440000e+10 1.010189e-02 8.314323e-03 9.873904e-01 -7.902897e-02 9.873851e-01 -7.903239e-02 1.008018e-02 8.248725e-03
1.450000e+10 1.012128e-02 8.361428e-03 9.873369e-01 -7.956605e-02 9.873315e-01 -7.956934e-02 1.009920e-02 8.295365e-03
1.460000e+10 1.014067e-02 8.408465e-03 9.872832e-01 -8.010308e-02 9.872777e-01 -8.010623e-02 1.011822e-02 8.341940e-03
1.470000e+10 1.016005e-02 8.455435e-03 9.872292e-01 -8.064005e-02 9.872236e-01 -8.064306e-02 1.013724e-02 8.388452e-03
1.480000e+10 1.017944e-02 8.502340e-03 9.871750e-01 -8.117698e-02 9.871692e-01 -8.117984e-02 1.015626e-02 8.434901e-03
1.490000e+10 1.019883e-02 8.549181e-03 9.871205e-01 -8.171386e-02 9.871146e-01 -8.171657e-02 1.017528e-02 8.481288e-03
1.500000e+10 1.021823e-02 8.595958e-03 9.870657e-01 -8.225069e-02 9.870597e-01 -8.225325e-02 1.019431e-02 8.527616e-03
1.510000e+10 1.023762e-02 8.642674e-03 9.870106e-01 -8.278747e-02 9.870046e-01 -8.278988e-02 1.021334e-02 8.573885e-03
1.520000e+10 1.025702e-02 8.689329e-03 9.869553e-01 -8.332421e-02 9.869492e-01 -8.332645e-02 1.023237e-02 8.620096e-03
1.530000e+10 1.027643e-02 8.735924e-03 9.868997e-01 -8.386089e-02 9.868935e-01 -8.386298e-02 1.025141e-02 8.666251e-03
1.540000e+10 1.029583e-02 8.782461e-03 9.868438e-01 -8.439753e-02 9.868375e-01 -8.439946e-02 1.027045e-02 8.712349e-03
1.550000e+10 1.031525e-02 8.828939e-03 9.867877e-01 -8.493413e-02 9.867813e-01 -8.493589e-02 1.028950e-02 8.758393e-03
1.560000e+10 1.033467e-02 8.875362e-03 9.867313e-01 -8.547068e-02 9.867248e-01 -8.547227e-02 1.030856e-02 8.804383e-03
1.570000e+10 1.035409e-02 8.921728e-03 9.866746e-01 -8.600718e-02 9.866680e-01 -8.600860e-02 1.032762e-02 8.850320e-03
1.580000e+10 1.037352e-02 8.968040e-03 9.866176e-01 -8.654364e-02 9.866110e-01 -8.654489e-02 1.034670e-02 8.896204e-03
1.590000e+10 1.039297e-02 9.014297e-03 9.865603e-01 -8.708005e-02 9.865537e-01 -8.708113e-02 1.036578e-02 8.942038e-03
1.600000e+10 1.041241e-02 9.060502e-03 9.865028e-01 -8.761641e-02 9.864961e-01 -8.761732e-02 1.038487e-02 8.987820e-03
1.610000e+10 1.043187e-02 9.106654e-03 9.864449e-01 -8.815274e-02 9.864382e-01 -8.815347e-02 1.040397e-02 9.033553e-03
1.620000e+10 1.045134e-02 9.152755e-03 9.863868e-01 -8.868901e-02 9.863800e-01 -8.868957e-02 1.042308e-02 9.079237e-03
1.630000e+10 1.047082e-02 9.198805e-03 9.863284e-01 -8.922524e-02 9.863216e-01 -8.922562e-02 1.044221e-02 9.124873e-03
1.640000e+10 1.049031e-02 9.244804e-03 9.862697e-01 -8.976143e-02 9.862629e-01 -8.976163e-02 1.046135e-02 9.170460e-03
1.650000e+10 1.050981e-02 9.290754e-03 9.862107e-01 -9.029756e-02 9.862039e-01 -9.029759e-02 1.048050e-02 9.216001e-03
1.660000e+10 1.052933e-02 9.336656e-03 9.861515e-01 -9.083366e-02 9.861446e-01 -9.083351e-02 1.049966e-02 9.261495e-03
