#   Hz   S  RI   R   50
!
0.000000e+00 6.574751e-03 0.000000e+00 9.934239e-01 0.000000e+00 9.934104e-01 0.000000e+00 6.541924e-03 0.000000e+00
1.000000e+08 6.575209e-03 2.712825e-04 9.934233e-01 -6.897077e-04 9.934098e-01 -6.892639e-04 6.542389e-03 2.722531e-04
2.000000e+08 6.576583e-03 5.425526e-04 9.934217e-01 -1.379401e-03 9.934082e-01 -1.378514e-03 6.543786e-03 5.444936e-04
3.000000e+08 6.578872e-03 8.137982e-04 9.934189e-01 -2.069067e-03 9.934054e-01 -2.067737e-03 6.546113e-03 8.167088e-04
4.000000e+08 6.582077e-03 1.085007e-03 9.934150e-01 -2.758690e-03 9.934016e-01 -2.756919e-03 6.549370e-03 1.088886e-03
5.000000e+08 6.586195e-03 1.356166e-03 9.934100e-01 -3.448256e-03 9.933966e-01 -3.446046e-03 6.553555e-03 1.361013e-03
6.000000e+08 6.591225e-03 1.627264e-03 9.934038e-01 -4.137752e-03 9.933906e-01 -4.135106e-03 6.558668e-03 1.633078e-03
7.000000e+08 6.597166e-03 1.898288e-03 9.933966e-01 -4.827164e-03 9.933834e-01 -4.824084e-03 6.564706e-03 1.905067e-03
8.000000e+08 6.604017e-03 2.169226e-03 9.933883e-01 -5.516478e-03 9.933752e-01 -5.512966e-03 6.571668e-03 2.176968e-03
9.000000e+08 6.611774e-03 2.440067e-03 9.933788e-01 -6.205680e-03 9.933659e-01 -6.201741e-03 6.579552e-03 2.448769e-03
1.000000e+09 6.620435e-03 2.710798e-03 9.933683e-01 -6.894755e-03 9.933555e-01 -6.890394e-03 6.588354e-03 2.720457e-03
1.100000e+09 6.629998e-03 2.981406e-03 9.933566e-01 -7.583692e-03 9.933440e-01 -7.578911e-03 6.598071e-03 2.992021e-03
1.200000e+09 6.640460e-03 3.251881e-03 9.933439e-01 -8.272475e-03 9.933314e-01 -8.267282e-03 6.608702e-03 3.263449e-03
1.300000e+09 6.651816e-03 3.522211e-03 9.933300e-01 -8.961092e-03 9.933177e-01 -8.955491e-03 6.620241e-03 3.534728e-03
1.400000e+09 6.664065e-03 3.792384e-03 9.933151e-01 -9.649529e-03 9.933030e-01 -9.643526e-03 6.632686e-03 3.805846e-03
1.500000e+09 6.677202e-03 4.062388e-03 9.932991e-01 -1.033777e-02 9.932871e-01 -1.033137e-02 6.646033e-03 4.076792e-03
1.600000e+09 6.691222e-03 4.332212e-03 9.932820e-01 -1.102581e-02 9.932703e-01 -1.101902e-02 6.660276e-03 4.347554e-03
1.700000e+09 6.706122e-03 4.601846e-03 9.932639e-01 -1.171363e-02 9.932523e-01 -1.170646e-02 6.675412e-03 4.618120e-03
1.800000e+09 6.721896e-03 4.871276e-03 9.932446e-01 -1.240122e-02 9.932333e-01 -1.239368e-02 6.691436e-03 4.888480e-03
1.900000e+09 6.738541e-03 5.140494e-03 9.932243e-01 -1.308857e-02 9.932133e-01 -1.308066e-02 6.708342e-03 5.158622e-03
2.000000e+09 6.756051e-03 5.409487e-03 9.932030e-01 -1.377566e-02 9.931922e-01 -1.376739e-02 6.726126e-03 5.428534e-03
2.100000e+09 6.774420e-03 5.678245e-03 9.931806e-01 -1.446248e-02 9.931700e-01 -1.445386e-02 6.744781e-03 5.698207e-03
2.200000e+09 6.793644e-03 5.946759e-03 9.931571e-01 -1.514902e-02 9.931469e-01 -1.514006e-02 6.764301e-03 5.967629e-03
2.300000e+09 6.813716e-03 6.215016e-03 9.931326e-01 -1.583527e-02 9.931226e-01 -1.582598e-02 6.784681e-03 6.236790e-03
2.400000e+09 6.834630e-03 6.483008e-03 9.931071e-01 -1.652122e-02 9.930974e-01 -1.651160e-02 6.805915e-03 6.505680e-03
2.500000e+09 6.856380e-03 6.750723e-03 9.930806e-01 -1.720685e-02 9.930712e-01 -1.719692e-02 6.827995e-03 6.774287e-03
2.600000e+09 6.878960e-03 7.018153e-03 9.930530e-01 -1.789215e-02 9.930439e-01 -1.788192e-02 6.850915e-03 7.042603e-03
2.700000e+09 6.902363e-03 7.285288e-03 9.930244e-01 -1.857712e-02 9.930157e-01 -1.856660e-02 6.874668e-03 7.310618e-03
2.800000e+09 6.926582e-03 7.552119e-03 9.929948e-01 -1.926175e-02 9.929864e-01 -1.925095e-02 6.899247e-03 7.578322e-03
2.900000e+09 6.951610e-03 7.818635e-03 9.929643e-01 -1.994601e-02 9.929562e-01 -1.993494e-02 6.924645e-03 7.845705e-03
3.000000e+09 6.977441e-03 8.084829e-03 9.929327e-01 -2.062991e-02 9.929249e-01 -2.061858e-02 6.950853e-03 8.112760e-03
3.100000e+09 7.004066e-03 8.350692e-03 9.929001e-01 -2.131343e-02 9.928927e-01 -2.130186e-02 6.977864e-03 8.379475e-03
3.200000e+09 7.031478e-03 8.616214e-03 9.928666e-01 -2.199657e-02 9.928596e-01 -2.198476e-02 7.005670e-03 8.645845e-03
3.300000e+09 7.059669e-03 8.881388e-03 9.928321e-01 -2.267931e-02 9.928255e-01 -2.266727e-02 7.034263e-03 8.911858e-03
3.400000e+09 7.088633e-03 9.146205e-03 9.927967e-01 -2.336164e-02 9.927904e-01 -2.334940e-02 7.063635e-03 9.177508e-03
3.500000e+09 7.118359e-03 9.410658e-03 9.927603e-01 -2.404357e-02 9.927544e-01 -2.403112e-02 7.093778e-03 9.442787e-03
3.600000e+09 7.148841e-03 9.674740e-03 9.927230e-01 -2.472507e-02 9.927174e-01 -2.471243e-02 7.124682e-03 9.707687e-03
3.700000e+09 7.180071e-03 9.938441e-03 9.926847e-01 -2.540614e-02 9.926796e-01 -2.539333e-02 7.156339e-03 9.972200e-03
3.800000e+09 7.212039e-03 1.020176e-02 9.926456e-01 -2.608677e-02 9.926408e-01 -2.607380e-02 7.188740e-03 1.023632e-02
3.900000e+09 7.244737e-03 1.046468e-02 9.926055e-01 -2.676696e-02 9.926011e-01 -2.675384e-02 7.221877e-03 1.050004e-02
4.000000e+09 7.278157e-03 1.072720e-02 9.925645e-01 -2.744669e-02 9.925605e-01 -2.743343e-02 7.255740e-03 1.076335e-02
4.100000e+09 7.312290e-03 1.098932e-02 9.925227e-01 -2.812597e-02 9.925191e-01 -2.811259e-02 7.290321e-03 1.102625e-02
4.200000e+09 7.347128e-03 1.125102e-02 9.924799e-01 -2.880478e-02 9.924767e-01 -2.879128e-02 7.325609e-03 1.128872e-02
4.300000e+09 7.382660e-03 1.151230e-02 9.924363e-01 -2.948311e-02 9.924335e-01 -2.946952e-02 7.361596e-03 1.155077e-02
4.400000e+09 7.418879e-03 1.177316e-02 9.923918e-01 -3.016097e-02 9.923895e-01 -3.014730e-02 7.398271e-03 1.181239e-02
4.500000e+09 7.455776e-03 1.203359e-02 9.923465e-01 -3.083834e-02 9.923445e-01 -3.082460e-02 7.435627e-03 1.207357e-02
4.600000e+09 7.493340e-03 1.229359e-02 9.923003e-01 -3.151523e-02 9.922988e-01 -3.150143e-02 7.473653e-03 1.233431e-02
4.700000e+09 7.531564e-03 1.255314e-02 9.922533e-01 -3.219161e-02 9.922522e-01 -3.217777e-02 7.512339e-03 1.259461e-02
4.800000e+09 7.570438e-03 1.281225e-02 9.922055e-01 -3.286750e-02 9.922048e-01 -3.285363e-02 7.551676e-03 1.285445e-02
4.900000e+09 7.609952e-03 1.307091e-02 9.921568e-01 -3.354289e-02 9.921566e-01 -3.352899e-02 7.591655e-03 1.311383e-02
5.000000e+09 7.650097e-03 1.332912e-02 9.921074e-01 -3.421776e-02 9.921076e-01 -3.420386e-02 7.632265e-03 1.337275e-02
5.100000e+09 7.690865e-03 1.358687e-02 9.920572e-01 -3.489213e-02 9.920577e-01 -3.487823e-02 7.673497e-03 1.363121e-02
5.200000e+09 7.732245e-03 1.384416e-02 9.920062e-01 -3.556597e-02 9.920072e-01 -3.555210e-02 7.715341e-03 1.388920e-02
5.300000e+09 7.774229e-03 1.410099e-02 9.919544e-01 -3.623930e-02 9.919558e-01 -3.622546e-02 7.757787e-03 1.414672e-02
5.400000e+09 7.816807e-03 1.435735e-02 9.919018e-01 -3.691210e-02 9.919037e-01 -3.689831e-02 7.800825e-03 1.440377e-02
5.500000e+09 7.859970e-03 1.461323e-02 9.918485e-01 -3.758438e-02 9.918508e-01 -3.757065e-02 7.844447e-03 1.466033e-02
5.600000e+09 7.903709e-03 1.486865e-02 9.917945e-01 -3.825613e-02 9.917972e-01 -3.824247e-02 7.888641e-03 1.491642e-02
5.700000e+09 7.948013e-03 1.512358e-02 9.917398e-01 -3.892735e-02 9.917428e-01 -3.891377e-02 7.933399e-03 1.517203e-02
5.800000e+09 7.992875e-03 1.537804e-02 9.916843e-01 -3.959803e-02 9.916877e-01 -3.958455e-02 7.978710e-03 1.542715e-02
5.900000e+09 8.038284e-03 1.563202e-02 9.916281e-01 -4.026819e-02 9.916319e-01 -4.025481e-02 8.024566e-03 1.568178e-02
6.000000e+09 8.084231e-03 1.588552e-02 9.915712e-01 -4.093780e-02 9.915754e-01 -4.092455e-02 8.070955e-03 1.593593e-02
6.100000e+09 8.130708e-03 1.613854e-02 9.915136e-01 -4.160688e-02 9.915182e-01 -4.159376e-02 8.117870e-03 1.618958e-02
6.200000e+09 8.177705e-03 1.639106e-02 9.914553e-01 -4.227542e-02 9.914603e-01 -4.226244e-02 8.165299e-03 1.644275e-02
6.300000e+09 8.225212e-03 1.664311e-02 9.913964e-01 -4.294342e-02 9.914018e-01 -4.293060e-02 8.213234e-03 1.669542e-02
6.400000e+09 8.273222e-03 1.689466e-02 9.913368e-01 -4.361089e-02 9.913426e-01 -4.359823e-02 8.261666e-03 1.694760e-02
6.500000e+09 8.321725e-03 1.714573e-02 9.912766e-01 -4.427781e-02 9.912827e-01 -4.426533e-02 8.310584e-03 1.719929e-02
6.600000e+09 8.370712e-03 1.739631e-02 9.912157e-01 -4.494420e-02 9.912222e-01 -4.493190e-02 8.359981e-03 1.745048e-02
6.700000e+09 8.420174e-03 1.764640e-02 9.911542e-01 -4.561004e-02 9.911610e-01 -4.559794e-02 8.409846e-03 1.770119e-02
6.800000e+09 8.470102e-03 1.789600e-02 9.910920e-01 -4.627535e-02 9.910992e-01 -4.626346e-02 8.460170e-03 1.795139e-02
6.900000e+09 8.520489e-03 1.814511e-02 9.910293e-01 -4.694012e-02 9.910368e-01 -4.692844e-02 8.510944e-03 1.820110e-02
7.000000e+09 8.571324e-03 1.839374e-02 9.909659e-01 -4.760435e-02 9.909738e-01 -4.759290e-02 8.562160e-03 1.845033e-02
7.100000e+09 8.622601e-03 1.864187e-02 9.909019e-01 -4.826805e-02 9.909101e-01 -4.825684e-02 8.613809e-03 1.869905e-02
7.200000e+09 8.674309e-03 1.888952e-02 9.908374e-01 -4.893122e-02 9.908459e-01 -4.892025e-02 8.665882e-03 1.894729e-02
7.300000e+09 8.726442e-03 1.913668e-02 9.907723e-01 -4.959385e-02 9.907811e-01 -4.958313e-02 8.718370e-03 1.919504e-02
7.400000e+09 8.778990e-03 1.938336e-02 9.907066e-01 -5.025595e-02 9.907157e-01 -5.024550e-02 8.771265e-03 1.944229e-02
7.500000e+09 8.831946e-03 1.962955e-02 9.906403e-01 -5.091753e-02 9.906497e-01 -5.090734e-02 8.824558e-03 1.968906e-02
7.600000e+09 8.885301e-03 1.987526e-02 9.905735e-01 -5.157858e-02 9.905832e-01 -5.156867e-02 8.878241e-03 1.993535e-02
7.700000e+09 8.939049e-03 2.012048e-02 9.905061e-01 -5.223910e-02 9.905161e-01 -5.222947e-02 8.932307e-03 2.018114e-02
7.800000e+09 8.993180e-03 2.036523e-02 9.904383e-01 -5.289910e-02 9.904485e-01 -5.288977e-02 8.986746e-03 2.042646e-02
7.900000e+09 9.047687e-03 2.060950e-02 9.903698e-01 -5.355859e-02 9.903804e-01 -5.354955e-02 9.041551e-03 2.067129e-02
8.000000e+09 9.102563e-03 2.085329e-02 9.903009e-01 -5.421756e-02 9.903117e-01 -5.420883e-02 9.096714e-03 2.091565e-02
8.100000e+09 9.157800e-03 2.109661e-02 9.902314e-01 -5.487601e-02 9.902425e-01 -5.486760e-02 9.152229e-03 2.115953e-02
8.200000e+09 9.213392e-03 2.133945e-02 9.901615e-01 -5.553396e-02 9.901727e-01 -5.552586e-02 9.208086e-03 2.140294e-02
8.300000e+09 9.269330e-03 2.158183e-02 9.900910e-01 -5.619140e-02 9.901025e-01 -5.618363e-02 9.264279e-03 2.164587e-02
8.400000e+09 9.325608e-03 2.182374e-02 9.900201e-01 -5.684834e-02 9.900318e-01 -5.684089e-02 9.320800e-03 2.188834e-02
8.500000e+09 9.382218e-03 2.206518e-02 9.899487e-01 -5.750478e-02 9.899605e-01 -5.749767e-02 9.377642e-03 2.213034e-02
8.600000e+09 9.439155e-03 2.230616e-02 9.898767e-01 -5.816073e-02 9.898888e-01 -5.815395e-02 9.434799e-03 2.237188e-02
8.700000e+09 9.496411e-03 2.254668e-02 9.898044e-01 -5.881618e-02 9.898166e-01 -5.880975e-02 9.492264e-03 2.261296e-02
8.800000e+09 9.553979e-03 2.278675e-02 9.897315e-01 -5.947115e-02 9.897440e-01 -5.946506e-02 9.550029e-03 2.285358e-02
8.900000e+09 9.611854e-03 2.302636e-02 9.896582e-01 -6.012564e-02 9.896708e-01 -6.011990e-02 9.608089e-03 2.309375e-02
9.000000e+09 9.670030e-03 2.326552e-02 9.895845e-01 -6.077964e-02 9.895972e-01 -6.077425e-02 9.666436e-03 2.333347e-02
9.100000e+09 9.728499e-03 2.350424e-02 9.895103e-01 -6.143317e-02 9.895232e-01 -6.142814e-02 9.725066e-03 2.357274e-02
9.200000e+09 9.787256e-03 2.374251e-02 9.894357e-01 -6.208624e-02 9.894487e-01 -6.208156e-02 9.783970e-03 2.381157e-02
9.300000e+09 9.846295e-03 2.398034e-02 9.893606e-01 -6.273883e-02 9.893737e-01 -6.273452e-02 9.843145e-03 2.404997e-02
9.400000e+09 9.905611e-03 2.421774e-02 9.892851e-01 -6.339097e-02 9.892984e-01 -6.338702e-02 9.902583e-03 2.428792e-02
9.500000e+09 9.965197e-03 2.445470e-02 9.892092e-01 -6.404265e-02 9.892226e-01 -6.403906e-02 9.962280e-03 2.452545e-02
9.600000e+09 1.002505e-02 2.469124e-02 9.891328e-01 -6.469388e-02 9.891463e-01 -6.469066e-02 1.002223e-02 2.476254e-02
9.700000e+09 1.008516e-02 2.492734e-02 9.890561e-01 -6.534466e-02 9.890697e-01 -6.534180e-02 1.008242e-02 2.499921e-02
9.800000e+09 1.014553e-02 2.516303e-02 9.889790e-01 -6.599500e-02 9.889926e-01 -6.599251e-02 1.014286e-02 2.523547e-02
9.900000e+09 1.020614e-02 2.539830e-02 9.889014e-01 -6.664491e-02 9.889151e-01 -6.664278e-02 1.020354e-02 2.547130e-02
1.000000e+10 1.026701e-02 2.563315e-02 9.888235e-01 -6.729438e-02 9.888372e-01 -6.729262e-02 1.026445e-02 2.570673e-02
1.010000e+10 1.032811e-02 2.586759e-02 9.887451e-01 -6.794343e-02 9.887589e-01 -6.794203e-02 1.032558e-02 2.594175e-02
1.020000e+10 1.038945e-02 2.610163e-02 9.886664e-01 -6.859205e-02 9.886802e-01 -6.859102e-02 1.038694e-02 2.617636e-02
1.030000e+10 1.045101e-02 2.633526e-02 9.885873e-01 -6.924026e-02 9.886011e-01 -6.923959e-02 1.044851e-02 2.641058e-02
1.040000e+10 1.051281e-02 2.656850e-02 9.885078e-01 -6.988806e-02 9.885217e-01 -6.988775e-02 1.051030e-02 2.664440e-02
1.050000e+10 1.057483e-02 2.680134e-02 9.884279e-01 -7.053545e-02 9.884418e-01 -7.053551e-02 1.057230e-02 2.687783e-02
1.060000e+10 1.063706e-02 2.703379e-02 9.883477e-01 -7.118244e-02 9.883616e-01 -7.118286e-02 1.063451e-02 2.711087e-02
1.070000e+10 1.069952e-02 2.726585e-02 9.882671e-01 -7.182904e-02 9.882809e-01 -7.182981e-02 1.069692e-02 2.734353e-02
1.080000e+10 1.076218e-02 2.749754e-02 9.881861e-01 -7.247524e-02 9.881999e-01 -7.247637e-02 1.075952e-02 2.757582e-02
1.090000e+10 1.082505e-02 2.772884e-02 9.881048e-01 -7.312106e-02 9.881186e-01 -7.312254e-02 1.082232e-02 2.780773e-02
1.100000e+10 1.088812e-02 2.795978e-02 9.880231e-01 -7.376650e-02 9.880368e-01 -7.376833e-02 1.088531e-02 2.803927e-02
1.110000e+10 1.095139e-02 2.819034e-02 9.879410e-01 -7.441157e-02 9.879548e-01 -7.441374e-02 1.094849e-02 2.827045e-02
1.120000e+10 1.101486e-02 2.842054e-02 9.878586e-01 -7.505626e-02 9.878723e-01 -7.505877e-02 1.101185e-02 2.850127e-02
1.130000e+10 1.107852e-02 2.865038e-02 9.877759e-01 -7.570059e-02 9.877895e-01 -7.570344e-02 1.107539e-02 2.873173e-02
1.140000e+10 1.114238e-02 2.887986e-02 9.876928e-01 -7.634456e-02 9.877063e-01 -7.634775e-02 1.113911e-02 2.896184e-02
1.150000e+10 1.120642e-02 2.910899e-02 9.876093e-01 -7.698818e-02 9.876228e-01 -7.699170e-02 1.120301e-02 2.919161e-02
1.160000e+10 1.127064e-02 2.933777e-02 9.875256e-01 -7.763145e-02 9.875389e-01 -7.763529e-02 1.126707e-02 2.942103e-02
1.170000e+10 1.133505e-02 2.956621e-02 9.874414e-01 -7.827438e-02 9.874547e-01 -7.827854e-02 1.133131e-02 2.965012e-02
1.180000e+10 1.139964e-02 2.979431e-02 9.873570e-01 -7.891697e-02 9.873701e-01 -7.892144e-02 1.139572e-02 2.987887e-02
1.190000e+10 1.146440e-02 3.002207e-02 9.872722e-01 -7.955922e-02 9.872852e-01 -7.956401e-02 1.146029e-02 3.010729e-02
1.200000e+10 1.152934e-02 3.024950e-02 9.871870e-01 -8.020115e-02 9.872000e-01 -8.020624e-02 1.152503e-02 3.033539e-02
1.210000e+10 1.159445e-02 3.047661e-02 9.871016e-01 -8.084276e-02 9.871144e-01 -8.084815e-02 1.158992e-02 3.056317e-02
1.220000e+10 1.165974e-02 3.070339e-02 9.870158e-01 -8.148404e-02 9.870285e-01 -8.148973e-02 1.165498e-02 3.079063e-02
1.230000e+10 1.172519e-02 3.092986e-02 9.869296e-01 -8.212502e-02 9.869422e-01 -8.213099e-02 1.172019e-02 3.101778e-02
1.240000e+10 1.179080e-02 3.115601e-02 9.868432e-01 -8.276568e-02 9.868556e-01 -8.277193e-02 1.178555e-02 3.124462e-02
1.250000e+10 1.185659e-02 3.138185e-02 9.867564e-01 -8.340605e-02 9.867687e-01 -8.341257e-02 1.185108e-02 3.147116e-02
1.260000e+10 1.192253e-02 3.160739e-02 9.866693e-01 -8.404611e-02 9.866814e-01 -8.405291e-02 1.191675e-02 3.169740e-02
1.270000e+10 1.198864e-02 3.183262e-02 9.865819e-01 -8.468588e-02 9.865938e-01 -8.469294e-02 1.198257e-02 3.192334e-02
1.280000e+10 1.205490e-02 3.205756e-02 9.864941e-01 -8.532536e-02 9.865059e-01 -8.533268e-02 1.204854e-02 3.214900e-02
1.290000e+10 1.212133e-02 3.228220e-02 9.864060e-01 -8.596456e-02 9.864176e-01 -8.597213e-02 1.211467e-02 3.237437e-02
1.300000e+10 1.218791e-02 3.250655e-02 9.863176e-01 -8.660348e-02 9.863290e-01 -8.661129e-02 1.218093e-02 3.259945e-02
1.310000e+10 1.225465e-02 3.273062e-02 9.862289e-01 -8.724213e-02 9.862401e-01 -8.725017e-02 1.224735e-02 3.282426e-02
1.320000e+10 1.232154e-02 3.295440e-02 9.861398e-01 -8.788050e-02 9.861509e-01 -8.788877e-02 1.231391e-02 3.304879e-02
1.330000e+10 1.238859e-02 3.317791e-02 9.860505e-01 -8.851861e-02 9.860613e-01 -8.852710e-02 1.238061e-02 3.327305e-02
1.340000e+10 1.245579e-02 3.340114e-02 9.859608e-01 -8.915646e-02 9.859715e-01 -8.916516e-02 1.244746e-02 3.349705e-02
1.350000e+10 1.252314e-02 3.362410e-02 9.858707e-01 -8.979405e-02 9.858812e-01 -8.980296e-02 1.251445e-02 3.372078e-02
1.360000e+10 1.259065e-02 3.384680e-02 9.857804e-01 -9.043139e-02 9.857907e-01 -9.044049e-02 1.258158e-02 3.394425e-02
1.370000e+10 1.265830e-02 3.406923e-02 9.856898e-01 -9.106848e-02 9.856999e-01 -9.107777e-02 1.264885e-02 3.416747e-02
1.380000e+10 1.272610e-02 3.429140e-02 9.855988e-01 -9.170532e-02 9.856087e-01 -9.171480e-02 1.271627e-02 3.439044e-02
1.390000e+10 1.279406e-02 3.451332e-02 9.855075e-01 -9.234193e-02 9.855172e-01 -9.235158e-02 1.278382e-02 3.461316e-02
1.400000e+10 1.286216e-02 3.473498e-02 9.854159e-01 -9.297830e-02 9.854253e-01 -9.298812e-02 1.285152e-02 3.483563e-02
1.410000e+10 1.293041e-02 3.495640e-02 9.853239e-01 -9.361444e-02 9.853332e-01 -9.362441e-02 1.291936e-02 3.505786e-02
1.420000e+10 1.299881e-02 3.517757e-02 9.852317e-01 -9.425034e-02 9.852407e-01 -9.426048e-02 1.298734e-02 3.527986e-02
1.430000e+10 1.306736e-02 3.539850e-02 9.851391e-01 -9.488603e-02 9.851479e-01 -9.489630e-02 1.305545e-02 3.550162e-02
1.440000e+10 1.313606e-02 3.561919e-02 9.850462e-01 -9.552149e-02 9.850548e-01 -9.553190e-02 1.312371e-02 3.572315e-02
1.450000e+10 1.320490e-02 3.583965e-02 9.849529e-01 -9.615674e-02 9.849614e-01 -9.616728e-02 1.319211e-02 3.594445e-02
1.460000e+10 1.327389e-02 3.605987e-02 9.848594e-01 -9.679177e-02 9.848676e-01 -9.680243e-02 1.326065e-02 3.616553e-02
1.470000e+10 1.334303e-02 3.627987e-02 9.847655e-01 -9.742660e-02 9.847735e-01 -9.743737e-02 1.332933e-02 3.638639e-02
1.480000e+10 1.341232e-02 3.649964e-02 9.846713e-01 -9.806121e-02 9.846791e-01 -9.807209e-02 1.339815e-02 3.660703e-02
1.490000e+10 1.348175e-02 3.671919e-02 9.845768e-01 -9.869563e-02 9.845843e-01 -9.870660e-02 1.346711e-02 3.682746e-02
1.500000e+10 1.355133e-02 3.693852e-02 9.844819e-01 -9.932984e-02 9.844893e-01 -9.934090e-02 1.353622e-02 3.704768e-02
1.510000e+10 1.362106e-02 3.715763e-02 9.843868e-01 -9.996386e-02 9.843939e-01 -9.997500e-02 1.360546e-02 3.726768e-02
1.520000e+10 1.369094e-02 3.737653e-02 9.842912e-01 -1.005977e-01 9.842981e-01 -1.006089e-01 1.367485e-02 3.748748e-02
1.530000e+10 1.376097e-02 3.759522e-02 9.841954e-01 -1.012313e-01 9.842021e-01 -1.012426e-01 1.374438e-02 3.770708e-02
1.540000e+10 1.383115e-02 3.781370e-02 9.840992e-01 -1.018648e-01 9.841057e-01 -1.018761e-01 1.381406e-02 3.792648e-02
1.550000e+10 1.390148e-02 3.803198e-02 9.840027e-01 -1.024980e-01 9.840090e-01 -1.025094e-01 1.388388e-02 3.814568e-02
1.560000e+10 1.397195e-02 3.825005e-02 9.839059e-01 -1.031311e-01 9.839120e-01 -1.031425e-01 1.395385e-02 3.836469e-02
1.570000e+10 1.404258e-02 3.846793e-02 9.838087e-01 -1.037640e-01 9.838146e-01 -1.037755e-01 1.402396e-02 3.858350e-02
1.580000e+10 1.411336e-02 3.868561e-02 9.837112e-01 -1.043967e-01 9.837169e-01 -1.044082e-01 1.409422e-02 3.880213e-02
1.590000e+10 1.418429e-02 3.890309e-02 9.836134e-01 -1.050293e-01 9.836188e-01 -1.050408e-01 1.416462e-02 3.902057e-02
1.600000e+10 1.425538e-02 3.912038e-02 9.835152e-01 -1.056617e-01 9.835205e-01 -1.056732e-01 1.423517e-02 3.923882e-02
1.610000e+10 1.432661e-02 3.933749e-02 9.834167e-01 -1.062939e-01 9.834217e-01 -1.063054e-01 1.430588e-02 3.945689e-02
1.620000e+10 1.439801e-02 3.955441e-02 9.833179e-01 -1.069259e-01 9.833227e-01 -1.069374e-01 1.437673e-02 3.967478e-02
1.630000e+10 1.446955e-02 3.977114e-02 9.832187e-01 -1.075578e-01 9.832233e-01 -1.075693e-01 1.444773e-02 3.989250e-02
1.640000e+10 1.454125e-02 3.998769e-02 9.831192e-01 -1.081895e-01 9.831236e-01 -1.082010e-01 1.451889e-02 4.011004e-02
1.650000e+10 1.461311e-02 4.020406e-02 9.830193e-01 -1.088211e-01 9.830235e-01 -1.088325e-01 1.459019e-02 4.032740e-02
1.660000e+10 1.468512e-02 4.042025e-02 9.829191e-01 -1.094525e-01 9.829231e-01 -1.094639e-01 1.466165e-02 4.054460e-02
