#   Hz   S  RI   R   50
!
0.000000e+00 1.120217e-02 0.000000e+00 9.888326e-01 0.000000e+00 9.888627e-01 0.000000e+00 1.123333e-02 0.000000e+00
1.000000e+08 1.120244e-02 7.522776e-05 9.888319e-01 -9.096039e-04 9.888621e-01 -9.106465e-04 1.123359e-02 7.380250e-05
2.000000e+08 1.120325e-02 1.504466e-04 9.888300e-01 -1.819197e-03 9.888601e-01 -1.821281e-03 1.123436e-02 1.475969e-04
3.000000e+08 1.120460e-02 2.256476e-04 9.888268e-01 -2.728769e-03 9.888568e-01 -2.731892e-03 1.123564e-02 2.213751e-04
4.000000e+08 1.120648e-02 3.008218e-04 9.888224e-01 -3.638308e-03 9.888522e-01 -3.642466e-03 1.123743e-02 2.951290e-04
5.000000e+08 1.120890e-02 3.759603e-04 9.888166e-01 -4.547805e-03 9.888463e-01 -4.552993e-03 1.123973e-02 3.688506e-04
6.000000e+08 1.121185e-02 4.510543e-04 9.888096e-01 -5.457249e-03 9.888391e-01 -5.463459e-03 1.124254e-02 4.425317e-04
7.000000e+08 1.121534e-02 5.260950e-04 9.888013e-01 -6.366628e-03 9.888306e-01 -6.373854e-03 1.124586e-02 5.161644e-04
8.000000e+08 1.121936e-02 6.010735e-04 9.887918e-01 -7.275932e-03 9.888208e-01 -7.284166e-03 1.124969e-02 5.897408e-04
9.000000e+08 1.122391e-02 6.759811e-04 9.887810e-01 -8.185152e-03 9.888097e-01 -8.194382e-03 1.125402e-02 6.632528e-04
1.000000e+09 1.122900e-02 7.508092e-04 9.887689e-01 -9.094276e-03 9.887973e-01 -9.104491e-03 1.125886e-02 7.366925e-04
1.100000e+09 1.123461e-02 8.255491e-04 9.887556e-01 -1.000329e-02 9.887836e-01 -1.001448e-02 1.126420e-02 8.100522e-04
1.200000e+09 1.124074e-02 9.001922e-04 9.887410e-01 -1.091220e-02 9.887686e-01 -1.092434e-02 1.127004e-02 8.833240e-04
1.300000e+09 1.124740e-02 9.747302e-04 9.887251e-01 -1.182097e-02 9.887523e-01 -1.183406e-02 1.127639e-02 9.565003e-04
1.400000e+09 1.125457e-02 1.049154e-03 9.887080e-01 -1.272961e-02 9.887347e-01 -1.274363e-02 1.128322e-02 1.029573e-03
1.500000e+09 1.126227e-02 1.123457e-03 9.886896e-01 -1.363810e-02 9.887158e-01 -1.365303e-02 1.129055e-02 1.102535e-03
1.600000e+09 1.127048e-02 1.197629e-03 9.886700e-01 -1.454644e-02 9.886957e-01 -1.456226e-02 1.129837e-02 1.175379e-03
1.700000e+09 1.127920e-02 1.271663e-03 9.886492e-01 -1.545461e-02 9.886743e-01 -1.547130e-02 1.130668e-02 1.248098e-03
1.800000e+09 1.128842e-02 1.345551e-03 9.886271e-01 -1.636260e-02 9.886516e-01 -1.638015e-02 1.131548e-02 1.320683e-03
1.900000e+09 1.129815e-02 1.419284e-03 9.886037e-01 -1.727041e-02 9.886276e-01 -1.728879e-02 1.132476e-02 1.393127e-03
2.000000e+09 1.130838e-02 1.492855e-03 9.885792e-01 -1.817803e-02 9.886024e-01 -1.819721e-02 1.133451e-02 1.465425e-03
2.100000e+09 1.131911e-02 1.566257e-03 9.885534e-01 -1.908544e-02 9.885759e-01 -1.910541e-02 1.134474e-02 1.537568e-03
2.200000e+09 1.133032e-02 1.639482e-03 9.885264e-01 -1.999264e-02 9.885482e-01 -2.001337e-02 1.135544e-02 1.609549e-03
2.300000e+09 1.134203e-02 1.712521e-03 9.884982e-01 -2.089961e-02 9.885193e-01 -2.092108e-02 1.136661e-02 1.681362e-03
2.400000e+09 1.135421e-02 1.785369e-03 9.884687e-01 -2.180636e-02 9.884891e-01 -2.182853e-02 1.137825e-02 1.753001e-03
2.500000e+09 1.136688e-02 1.858018e-03 9.884381e-01 -2.271286e-02 9.884577e-01 -2.273572e-02 1.139034e-02 1.824458e-03
2.600000e+09 1.138002e-02 1.930461e-03 9.884062e-01 -2.361912e-02 9.884250e-01 -2.364264e-02 1.140289e-02 1.895726e-03
2.700000e+09 1.139363e-02 2.002691e-03 9.883732e-01 -2.452513e-02 9.883912e-01 -2.454926e-02 1.141589e-02 1.966801e-03
2.800000e+09 1.140770e-02 2.074701e-03 9.883390e-01 -2.543086e-02 9.883561e-01 -2.545560e-02 1.142934e-02 2.037675e-03
2.900000e+09 1.142222e-02 2.146486e-03 9.883036e-01 -2.633633e-02 9.883199e-01 -2.636164e-02 1.144323e-02 2.108343e-03
3.000000e+09 1.143721e-02 2.218037e-03 9.882670e-01 -2.724152e-02 9.882824e-01 -2.726736e-02 1.145755e-02 2.178798e-03
3.100000e+09 1.145263e-02 2.289350e-03 9.882292e-01 -2.814642e-02 9.882437e-01 -2.817277e-02 1.147231e-02 2.249034e-03
3.200000e+09 1.146850e-02 2.360418e-03 9.881903e-01 -2.905102e-02 9.882039e-01 -2.907785e-02 1.148750e-02 2.319047e-03
3.300000e+09 1.148481e-02 2.431236e-03 9.881502e-01 -2.995533e-02 9.881629e-01 -2.998260e-02 1.150311e-02 2.388830e-03
3.400000e+09 1.150154e-02 2.501797e-03 9.881090e-01 -3.085932e-02 9.881208e-01 -3.088700e-02 1.151913e-02 2.458379e-03
3.500000e+09 1.151870e-02 2.572096e-03 9.880666e-01 -3.176300e-02 9.880774e-01 -3.179106e-02 1.153557e-02 2.527687e-03
3.600000e+09 1.153628e-02 2.642127e-03 9.880231e-01 -3.266636e-02 9.880330e-01 -3.269477e-02 1.155242e-02 2.596750e-03
3.700000e+09 1.155427e-02 2.711887e-03 9.879785e-01 -3.356939e-02 9.879874e-01 -3.359811e-02 1.156966e-02 2.665563e-03
3.800000e+09 1.157266e-02 2.781369e-03 9.879327e-01 -3.447209e-02 9.879406e-01 -3.450108e-02 1.158731e-02 2.734122e-03
3.900000e+09 1.159146e-02 2.850568e-03 9.878859e-01 -3.537445e-02 9.878928e-01 -3.540369e-02 1.160534e-02 2.802421e-03
4.000000e+09 1.161064e-02 2.919481e-03 9.878379e-01 -3.627646e-02 9.878438e-01 -3.630591e-02 1.162375e-02 2.870456e-03
4.100000e+09 1.163021e-02 2.988102e-03 9.877888e-01 -3.717812e-02 9.877937e-01 -3.720774e-02 1.164255e-02 2.938223e-03
4.200000e+09 1.165016e-02 3.056427e-03 9.877386e-01 -3.807943e-02 9.877425e-01 -3.810919e-02 1.166172e-02 3.005718e-03
4.300000e+09 1.167049e-02 3.124453e-03 9.876874e-01 -3.898037e-02 9.876903e-01 -3.901024e-02 1.168126e-02 3.072936e-03
4.400000e+09 1.169118e-02 3.192175e-03 9.876351e-01 -3.988095e-02 9.876369e-01 -3.991089e-02 1.170115e-02 3.139875e-03
4.500000e+09 1.171223e-02 3.259589e-03 9.875817e-01 -4.078116e-02 9.875825e-01 -4.081114e-02 1.172140e-02 3.206529e-03
4.600000e+09 1.173364e-02 3.326693e-03 9.875272e-01 -4.168099e-02 9.875270e-01 -4.171098e-02 1.174201e-02 3.272897e-03
4.700000e+09 1.175539e-02 3.393482e-03 9.874717e-01 -4.258044e-02 9.874705e-01 -4.261040e-02 1.176295e-02 3.338974e-03
4.800000e+09 1.177747e-02 3.459954e-03 9.874151e-01 -4.347951e-02 9.874129e-01 -4.350941e-02 1.178423e-02 3.404758e-03
4.900000e+09 1.179990e-02 3.526106e-03 9.873575e-01 -4.437820e-02 9.873543e-01 -4.440800e-02 1.180585e-02 3.470245e-03
5.000000e+09 1.182264e-02 3.591934e-03 9.872989e-01 -4.527649e-02 9.872947e-01 -4.530616e-02 1.182779e-02 3.535432e-03
5.100000e+09 1.184571e-02 3.657436e-03 9.872392e-01 -4.617440e-02 9.872341e-01 -4.620390e-02 1.185004e-02 3.600317e-03
5.200000e+09 1.186909e-02 3.722611e-03 9.871785e-01 -4.707190e-02 9.871724e-01 -4.710121e-02 1.187261e-02 3.664898e-03
5.300000e+09 1.189277e-02 3.787454e-03 9.871169e-01 -4.796901e-02 9.871098e-01 -4.799809e-02 1.189549e-02 3.729171e-03
5.400000e+09 1.191675e-02 3.851966e-03 9.870542e-01 -4.886571e-02 9.870461e-01 -4.889453e-02 1.191866e-02 3.793135e-03
5.500000e+09 1.194102e-02 3.916143e-03 9.869905e-01 -4.976202e-02 9.869815e-01 -4.979054e-02 1.194213e-02 3.856788e-03
5.600000e+09 1.196558e-02 3.979983e-03 9.869259e-01 -5.065791e-02 9.869159e-01 -5.068612e-02 1.196589e-02 3.920127e-03
5.700000e+09 1.199042e-02 4.043486e-03 9.868602e-01 -5.155340e-02 9.868493e-01 -5.158125e-02 1.198993e-02 3.983152e-03
5.800000e+09 1.201552e-02 4.106650e-03 9.867936e-01 -5.244848e-02 9.867818e-01 -5.247594e-02 1.201425e-02 4.045860e-03
5.900000e+09 1.204089e-02 4.169474e-03 9.867261e-01 -5.334315e-02 9.867134e-01 -5.337020e-02 1.203884e-02 4.108249e-03
6.000000e+09 1.206652e-02 4.231957e-03 9.866576e-01 -5.423740e-02 9.866440e-01 -5.426401e-02 1.206368e-02 4.170320e-03
6.100000e+09 1.209239e-02 4.294097e-03 9.865881e-01 -5.513124e-02 9.865737e-01 -5.515738e-02 1.208879e-02 4.232070e-03
6.200000e+09 1.211851e-02 4.355895e-03 9.865177e-01 -5.602467e-02 9.865024e-01 -5.605031e-02 1.211415e-02 4.293499e-03
6.300000e+09 1.214487e-02 4.417350e-03 9.864464e-01 -5.691768e-02 9.864303e-01 -5.694279e-02 1.213975e-02 4.354605e-03
6.400000e+09 1.217146e-02 4.478460e-03 9.863742e-01 -5.781027e-02 9.863572e-01 -5.783484e-02 1.216559e-02 4.415388e-03
6.500000e+09 1.219827e-02 4.539227e-03 9.863010e-01 -5.870245e-02 9.862833e-01 -5.872644e-02 1.219167e-02 4.475847e-03
6.600000e+09 1.222530e-02 4.599650e-03 9.862270e-01 -5.959421e-02 9.862085e-01 -5.961760e-02 1.221797e-02 4.535983e-03
6.700000e+09 1.225253e-02 4.659729e-03 9.861520e-01 -6.048555e-02 9.861327e-01 -6.050832e-02 1.224449e-02 4.595794e-03
6.800000e+09 1.227998e-02 4.719465e-03 9.860762e-01 -6.137648e-02 9.860562e-01 -6.139860e-02 1.227123e-02 4.655280e-03
6.900000e+09 1.230762e-02 4.778857e-03 9.859994e-01 -6.226699e-02 9.859787e-01 -6.228844e-02 1.229818e-02 4.714442e-03
7.000000e+09 1.233546e-02 4.837906e-03 9.859218e-01 -6.315709e-02 9.859004e-01 -6.317784e-02 1.232533e-02 4.773279e-03
7.100000e+09 1.236347e-02 4.896613e-03 9.858433e-01 -6.404677e-02 9.858213e-01 -6.406681e-02 1.235268e-02 4.831792e-03
7.200000e+09 1.239167e-02 4.954979e-03 9.857639e-01 -6.493603e-02 9.857413e-01 -6.495534e-02 1.238022e-02 4.889980e-03
7.300000e+09 1.242005e-02 5.013004e-03 9.856837e-01 -6.582488e-02 9.856605e-01 -6.584344e-02 1.240795e-02 4.947845e-03
7.400000e+09 1.244859e-02 5.070690e-03 9.856027e-01 -6.671332e-02 9.855788e-01 -6.673111e-02 1.243586e-02 5.005387e-03
7.500000e+09 1.247729e-02 5.128038e-03 9.855208e-01 -6.760135e-02 9.854964e-01 -6.761836e-02 1.246395e-02 5.062606e-03
7.600000e+09 1.250615e-02 5.185048e-03 9.854380e-01 -6.848896e-02 9.854131e-01 -6.850517e-02 1.249221e-02 5.119504e-03
7.700000e+09 1.253516e-02 5.241724e-03 9.853544e-01 -6.937617e-02 9.853290e-01 -6.939157e-02 1.252063e-02 5.176081e-03
7.800000e+09 1.256431e-02 5.298065e-03 9.852700e-01 -7.026297e-02 9.852441e-01 -7.027754e-02 1.254922e-02 5.232338e-03
7.900000e+09 1.259361e-02 5.354073e-03 9.851848e-01 -7.114937e-02 9.851585e-01 -7.116309e-02 1.257795e-02 5.288276e-03
8.000000e+09 1.262303e-02 5.409751e-03 9.850988e-01 -7.203536e-02 9.850720e-01 -7.204823e-02 1.260684e-02 5.343897e-03
8.100000e+09 1.265259e-02 5.465100e-03 9.850119e-01 -7.292095e-02 9.849848e-01 -7.293296e-02 1.263588e-02 5.399201e-03
8.200000e+09 1.268227e-02 5.520122e-03 9.849243e-01 -7.380614e-02 9.848968e-01 -7.381728e-02 1.266505e-02 5.454191e-03
8.300000e+09 1.271206e-02 5.574818e-03 9.848358e-01 -7.469093e-02 9.848080e-01 -7.470119e-02 1.269436e-02 5.508867e-03
8.400000e+09 1.274197e-02 5.629192e-03 9.847466e-01 -7.557533e-02 9.847185e-01 -7.558470e-02 1.272379e-02 5.563231e-03
8.500000e+09 1.277199e-02 5.683245e-03 9.846566e-01 -7.645933e-02 9.846282e-01 -7.646780e-02 1.275336e-02 5.617284e-03
8.600000e+09 1.280211e-02 5.736980e-03 9.845658e-01 -7.734295e-02 9.845372e-01 -7.735052e-02 1.278304e-02 5.671029e-03
8.700000e+09 1.283233e-02 5.790398e-03 9.844742e-01 -7.822617e-02 9.844454e-01 -7.823284e-02 1.281284e-02 5.724467e-03
8.800000e+09 1.286265e-02 5.843503e-03 9.843818e-01 -7.910901e-02 9.843528e-01 -7.911477e-02 1.284276e-02 5.777600e-03
8.900000e+09 1.289305e-02 5.896296e-03 9.842887e-01 -7.999147e-02 9.842596e-01 -7.999631e-02 1.287278e-02 5.830430e-03
9.000000e+09 1.292354e-02 5.948781e-03 9.841949e-01 -8.087355e-02 9.841656e-01 -8.087748e-02 1.290290e-02 5.882958e-03
9.100000e+09 1.295411e-02 6.000959e-03 9.841002e-01 -8.175526e-02 9.840709e-01 -8.175826e-02 1.293312e-02 5.935188e-03
9.200000e+09 1.298475e-02 6.052835e-03 9.840049e-01 -8.263658e-02 9.839754e-01 -8.263868e-02 1.296344e-02 5.987120e-03
9.300000e+09 1.301547e-02 6.104409e-03 9.839087e-01 -8.351754e-02 9.838793e-01 -8.351872e-02 1.299385e-02 6.038757e-03
9.400000e+09 1.304626e-02 6.155686e-03 9.838119e-01 -8.439813e-02 9.837824e-01 -8.439840e-02 1.302434e-02 6.090102e-03
9.500000e+09 1.307711e-02 6.206667e-03 9.837143e-01 -8.527836e-02 9.836848e-01 -8.527771e-02 1.305492e-02 6.141157e-03
9.600000e+09 1.310802e-02 6.257357e-03 9.836159e-01 -8.615822e-02 9.835866e-01 -8.615667e-02 1.308558e-02 6.191923e-03
9.700000e+09 1.313899e-02 6.307757e-03 9.835169e-01 -8.703773e-02 9.834876e-01 -8.703528e-02 1.311631e-02 6.242404e-03
9.800000e+09 1.317001e-02 6.357871e-03 9.834171e-01 -8.791688e-02 9.833879e-01 -8.791353e-02 1.314711e-02 6.292601e-03
9.900000e+09 1.320109e-02 6.407702e-03 9.833165e-01 -8.879568e-02 9.832875e-01 -8.879144e-02 1.317799e-02 6.342518e-03
1.000000e+10 1.323221e-02 6.457252e-03 9.832153e-01 -8.967413e-02 9.831864e-01 -8.966901e-02 1.320893e-02 6.392156e-03
1.010000e+10 1.326337e-02 6.506526e-03 9.831134e-01 -9.055223e-02 9.830847e-01 -9.054624e-02 1.323993e-02 6.441518e-03
1.020000e+10 1.329457e-02 6.555525e-03 9.830107e-01 -9.142999e-02 9.829822e-01 -9.142314e-02 1.327099e-02 6.490607e-03
1.030000e+10 1.332581e-02 6.604254e-03 9.829073e-01 -9.230742e-02 9.828791e-01 -9.229971e-02 1.330210e-02 6.539426e-03
1.040000e+10 1.335708e-02 6.652715e-03 9.828032e-01 -9.318451e-02 9.827753e-01 -9.317596e-02 1.333327e-02 6.587976e-03
1.050000e+10 1.338839e-02 6.700911e-03 9.826985e-01 -9.406127e-02 9.826708e-01 -9.405189e-02 1.336448e-02 6.636261e-03
1.060000e+10 1.341972e-02 6.748846e-03 9.825930e-01 -9.493770e-02 9.825657e-01 -9.492750e-02 1.339575e-02 6.684284e-03
1.070000e+10 1.345108e-02 6.796523e-03 9.824868e-01 -9.581380e-02 9.824598e-01 -9.580280e-02 1.342705e-02 6.732046e-03
1.080000e+10 1.348246e-02 6.843944e-03 9.823799e-01 -9.668959e-02 9.823533e-01 -9.667779e-02 1.345840e-02 6.779551e-03
1.090000e+10 1.351387e-02 6.891114e-03 9.822723e-01 -9.756505e-02 9.822461e-01 -9.755248e-02 1.348978e-02 6.826802e-03
1.100000e+10 1.354529e-02 6.938036e-03 9.821641e-01 -9.844020e-02 9.821383e-01 -9.842687e-02 1.352121e-02 6.873801e-03
1.110000e+10 1.357673e-02 6.984712e-03 9.820551e-01 -9.931504e-02 9.820298e-01 -9.930097e-02 1.355266e-02 6.920550e-03
1.120000e+10 1.360818e-02 7.031147e-03 9.819455e-01 -1.001896e-01 9.819206e-01 -1.001748e-01 1.358415e-02 6.967054e-03
1.130000e+10 1.363964e-02 7.077342e-03 9.818352e-01 -1.010638e-01 9.818108e-01 -1.010483e-01 1.361566e-02 7.013314e-03
1.140000e+10 1.367112e-02 7.123302e-03 9.817242e-01 -1.019377e-01 9.817003e-01 -1.019215e-01 1.364720e-02 7.059333e-03
1.150000e+10 1.370260e-02 7.169030e-03 9.816125e-01 -1.028114e-01 9.815891e-01 -1.027945e-01 1.367876e-02 7.105114e-03
1.160000e+10 1.373409e-02 7.214528e-03 9.815001e-01 -1.036847e-01 9.814773e-01 -1.036672e-01 1.371035e-02 7.150660e-03
1.170000e+10 1.376558e-02 7.259801e-03 9.813871e-01 -1.045578e-01 9.813648e-01 -1.045396e-01 1.374196e-02 7.195974e-03
1.180000e+10 1.379708e-02 7.304851e-03 9.812734e-01 -1.054305e-01 9.812517e-01 -1.054117e-01 1.377358e-02 7.241058e-03
1.190000e+10 1.382858e-02 7.349681e-03 9.811590e-01 -1.063030e-01 9.811379e-01 -1.062836e-01 1.380522e-02 7.285916e-03
1.200000e+10 1.386007e-02 7.394295e-03 9.810439e-01 -1.071752e-01 9.810234e-01 -1.071552e-01 1.383688e-02 7.330550e-03
1.210000e+10 1.389157e-02 7.438696e-03 9.809282e-01 -1.080471e-01 9.809083e-01 -1.080266e-01 1.386855e-02 7.374962e-03
1.220000e+10 1.392306e-02 7.482887e-03 9.808118e-01 -1.089188e-01 9.807925e-01 -1.088977e-01 1.390023e-02 7.419156e-03
1.230000e+10 1.395455e-02 7.526871e-03 9.806947e-01 -1.097901e-01 9.806761e-01 -1.097686e-01 1.393192e-02 7.463134e-03
1.240000e+10 1.398603e-02 7.570651e-03 9.805769e-01 -1.106613e-01 9.805590e-01 -1.106392e-01 1.396362e-02 7.506900e-03
1.250000e+10 1.401751e-02 7.614230e-03 9.804585e-01 -1.115321e-01 9.804413e-01 -1.115096e-01 1.399532e-02 7.550455e-03
1.260000e+10 1.404898e-02 7.657612e-03 9.803394e-01 -1.124027e-01 9.803229e-01 -1.123797e-01 1.402703e-02 7.593803e-03
1.270000e+10 1.408044e-02 7.700798e-03 9.802197e-01 -1.132730e-01 9.802039e-01 -1.132496e-01 1.405874e-02 7.636946e-03
1.280000e+10 1.411189e-02 7.743793e-03 9.800993e-01 -1.141431e-01 9.800842e-01 -1.141193e-01 1.409046e-02 7.679888e-03
1.290000e+10 1.414333e-02 7.786600e-03 9.799782e-01 -1.150129e-01 9.799638e-01 -1.149887e-01 1.412218e-02 7.722630e-03
1.300000e+10 1.417476e-02 7.829220e-03 9.798564e-01 -1.158825e-01 9.798428e-01 -1.158580e-01 1.415390e-02 7.765175e-03
1.310000e+10 1.420618e-02 7.871658e-03 9.797340e-01 -1.167518e-01 9.797211e-01 -1.167270e-01 1.418562e-02 7.807527e-03
1.320000e+10 1.423759e-02 7.913915e-03 9.796109e-01 -1.176209e-01 9.795988e-01 -1.175958e-01 1.421734e-02 7.849687e-03
1.330000e+10 1.426898e-02 7.955995e-03 9.794872e-01 -1.184897e-01 9.794758e-01 -1.184643e-01 1.424905e-02 7.891658e-03
1.340000e+10 1.430037e-02 7.997901e-03 9.793628e-01 -1.193583e-01 9.793521e-01 -1.193327e-01 1.428076e-02 7.933443e-03
1.350000e+10 1.433173e-02 8.039635e-03 9.792377e-01 -1.202267e-01 9.792278e-01 -1.202008e-01 1.431247e-02 7.975045e-03
1.360000e+10 1.436309e-02 8.081200e-03 9.791119e-01 -1.210948e-01 9.791028e-01 -1.210688e-01 1.434417e-02 8.016466e-03
1.370000e+10 1.439443e-02 8.122599e-03 9.789855e-01 -1.219627e-01 9.789772e-01 -1.219365e-01 1.437587e-02 8.057708e-03
1.380000e+10 1.442576e-02 8.163835e-03 9.788585e-01 -1.228304e-01 9.788509e-01 -1.228040e-01 1.440756e-02 8.098774e-03
1.390000e+10 1.445707e-02 8.204909e-03 9.787307e-01 -1.236979e-01 9.787239e-01 -1.236713e-01 1.443925e-02 8.139666e-03
1.400000e+10 1.448836e-02 8.245825e-03 9.786023e-01 -1.245651e-01 9.785963e-01 -1.245385e-01 1.447093e-02 8.180388e-03
1.410000e+10 1.451965e-02 8.286585e-03 9.784732e-01 -1.254321e-01 9.784680e-01 -1.254054e-01 1.450260e-02 8.220940e-03
1.420000e+10 1.455091e-02 8.327192e-03 9.783435e-01 -1.262989e-01 9.783390e-01 -1.262721e-01 1.453426e-02 8.261327e-03
1.430000e+10 1.458217e-02 8.367648e-03 9.782131e-01 -1.271655e-01 9.782094e-01 -1.271387e-01 1.456592e-02 8.301549e-03
1.440000e+10 1.461340e-02 8.407955e-03 9.780820e-01 -1.280319e-01 9.780791e-01 -1.280051e-01 1.459756e-02 8.341609e-03
1.450000e+10 1.464463e-02 8.448117e-03 9.779503e-01 -1.288980e-01 9.779481e-01 -1.288712e-01 1.462920e-02 8.381511e-03
1.460000e+10 1.467584e-02 8.488134e-03 9.778179e-01 -1.297640e-01 9.778164e-01 -1.297372e-01 1.466082e-02 8.421255e-03
1.470000e+10 1.470703e-02 8.528011e-03 9.776848e-01 -1.306297e-01 9.776841e-01 -1.306030e-01 1.469244e-02 8.460844e-03
1.480000e+10 1.473821e-02 8.567747e-03 9.775510e-01 -1.314952e-01 9.775511e-01 -1.314687e-01 1.472405e-02 8.500281e-03
1.490000e+10 1.476938e-02 8.607347e-03 9.774166e-01 -1.323606e-01 9.774174e-01 -1.323341e-01 1.475564e-02 8.539567e-03
1.500000e+10 1.480053e-02 8.646812e-03 9.772815e-01 -1.332257e-01 9.772831e-01 -1.331994e-01 1.478723e-02 8.578704e-03
1.510000e+10 1.483167e-02 8.686145e-03 9.771457e-01 -1.340906e-01 9.771481e-01 -1.340645e-01 1.481881e-02 8.617696e-03
1.520000e+10 1.486279e-02 8.725347e-03 9.770093e-01 -1.349554e-01 9.770123e-01 -1.349294e-01 1.485037e-02 8.656543e-03
1.530000e+10 1.489390e-02 8.764420e-03 9.768722e-01 -1.358199e-01 9.768759e-01 -1.357941e-01 1.488193e-02 8.695248e-03
1.540000e+10 1.492501e-02 8.803366e-03 9.767344e-01 -1.366843e-01 9.767389e-01 -1.366587e-01 1.491347e-02 8.733813e-03
1.550000e+10 1.495609e-02 8.842188e-03 9.765959e-01 -1.375484e-01 9.766011e-01 -1.375231e-01 1.494501e-02 8.772240e-03
1.560000e+10 1.498717e-02 8.880887e-03 9.764568e-01 -1.384124e-01 9.764626e-01 -1.383873e-01 1.497653e-02 8.810531e-03
1.570000e+10 1.501824e-02 8.919465e-03 9.763170e-01 -1.392762e-01 9.763235e-01 -1.392514e-01 1.500805e-02 8.848687e-03
1.580000e+10 1.504930e-02 8.957924e-03 9.761765e-01 -1.401398e-01 9.761837e-01 -1.401153e-01 1.503955e-02 8.886711e-03
1.590000e+10 1.508034e-02 8.996266e-03 9.760353e-01 -1.410032e-01 9.760431e-01 -1.409790e-01 1.507105e-02 8.924604e-03
1.600000e+10 1.511138e-02 9.034492e-03 9.758934e-01 -1.418664e-01 9.759019e-01 -1.418426e-01 1.510253e-02 8.962368e-03
1.610000e+10 1.514241e-02 9.072604e-03 9.757509e-01 -1.427294e-01 9.757600e-01 -1.427059e-01 1.513401e-02 9.000006e-03
1.620000e+10 1.517343e-02 9.110604e-03 9.756077e-01 -1.435923e-01 9.756174e-01 -1.435692e-01 1.516548e-02 9.037518e-03
1.630000e+10 1.520444e-02 9.148493e-03 9.754638e-01 -1.444549e-01 9.754741e-01 -1.444322e-01 1.519694e-02 9.074906e-03
1.640000e+10 1.523545e-02 9.186274e-03 9.753192e-01 -1.453174e-01 9.753301e-01 -1.452951e-01 1.522839e-02 9.112173e-03
1.650000e+10 1.526645e-02 9.223946e-03 9.751739e-01 -1.461797e-01 9.751854e-01 -1.461579e-01 1.525983e-02 9.149319e-03
1.660000e+10 1.529744e-02 9.261513e-03 9.750279e-01 -1.470419e-01 9.750400e-01 -1.470205e-01 1.529127e-02 9.186347e-03
