#   Hz   S  RI   R   50
!
0.000000e+00 1.044351e-02 0.000000e+00 9.895980e-01 0.000000e+00 9.895997e-01 0.000000e+00 1.045146e-02 0.000000e+00
1.000000e+08 1.044468e-02 4.458994e-04 9.895965e-01 -1.299420e-03 9.895982e-01 -1.299394e-03 1.045257e-02 4.463460e-04
2.000000e+08 1.044820e-02 8.917692e-04 9.895919e-01 -2.598807e-03 9.895936e-01 -2.598756e-03 1.045587e-02 8.926631e-04
3.000000e+08 1.045405e-02 1.337580e-03 9.895843e-01 -3.898131e-03 9.895859e-01 -3.898055e-03 1.046138e-02 1.338922e-03
4.000000e+08 1.046225e-02 1.783302e-03 9.895736e-01 -5.197360e-03 9.895752e-01 -5.197258e-03 1.046909e-02 1.785095e-03
5.000000e+08 1.047279e-02 2.228906e-03 9.895599e-01 -6.496461e-03 9.895615e-01 -6.496334e-03 1.047900e-02 2.231153e-03
6.000000e+08 1.048566e-02 2.674362e-03 9.895431e-01 -7.795404e-03 9.895447e-01 -7.795251e-03 1.049111e-02 2.677066e-03
7.000000e+08 1.050087e-02 3.119641e-03 9.895233e-01 -9.094156e-03 9.895249e-01 -9.093977e-03 1.050541e-02 3.122807e-03
8.000000e+08 1.051840e-02 3.564715e-03 9.895004e-01 -1.039269e-02 9.895020e-01 -1.039248e-02 1.052190e-02 3.568346e-03
9.000000e+08 1.053825e-02 4.009553e-03 9.894745e-01 -1.169096e-02 9.894761e-01 -1.169073e-02 1.054057e-02 4.013657e-03
1.000000e+09 1.056042e-02 4.454127e-03 9.894456e-01 -1.298896e-02 9.894472e-01 -1.298870e-02 1.056142e-02 4.458709e-03
1.100000e+09 1.058490e-02 4.898409e-03 9.894137e-01 -1.428664e-02 9.894152e-01 -1.428635e-02 1.058444e-02 4.903477e-03
1.200000e+09 1.061168e-02 5.342370e-03 9.893787e-01 -1.558397e-02 9.893803e-01 -1.558366e-02 1.060963e-02 5.347931e-03
1.300000e+09 1.064076e-02 5.785982e-03 9.893408e-01 -1.688093e-02 9.893423e-01 -1.688059e-02 1.063697e-02 5.792043e-03
1.400000e+09 1.067213e-02 6.229216e-03 9.892998e-01 -1.817748e-02 9.893013e-01 -1.817712e-02 1.066647e-02 6.235788e-03
1.500000e+09 1.070577e-02 6.672045e-03 9.892559e-01 -1.947359e-02 9.892574e-01 -1.947320e-02 1.069810e-02 6.679138e-03
1.600000e+09 1.074169e-02 7.114441e-03 9.892090e-01 -2.076924e-02 9.892105e-01 -2.076883e-02 1.073186e-02 7.122065e-03
1.700000e+09 1.077986e-02 7.556378e-03 9.891591e-01 -2.206440e-02 9.891606e-01 -2.206396e-02 1.076775e-02 7.564544e-03
1.800000e+09 1.082028e-02 7.997828e-03 9.891063e-01 -2.335903e-02 9.891077e-01 -2.335856e-02 1.080575e-02 8.006548e-03
1.900000e+09 1.086294e-02 8.438765e-03 9.890505e-01 -2.465311e-02 9.890519e-01 -2.465262e-02 1.084584e-02 8.448051e-03
2.000000e+09 1.090782e-02 8.879162e-03 9.889918e-01 -2.594661e-02 9.889932e-01 -2.594609e-02 1.088803e-02 8.889028e-03
2.100000e+09 1.095492e-02 9.318994e-03 9.889302e-01 -2.723951e-02 9.889316e-01 -2.723896e-02 1.093229e-02 9.329453e-03
2.200000e+09 1.100422e-02 9.758235e-03 9.888657e-01 -2.853177e-02 9.888671e-01 -2.853119e-02 1.097862e-02 9.769302e-03
2.300000e+09 1.105571e-02 1.019686e-02 9.887983e-01 -2.982336e-02 9.887996e-01 -2.982275e-02 1.102699e-02 1.020855e-02
2.400000e+09 1.110936e-02 1.063484e-02 9.887280e-01 -3.111427e-02 9.887293e-01 -3.111363e-02 1.107740e-02 1.064717e-02
2.500000e+09 1.116518e-02 1.107216e-02 9.886549e-01 -3.240447e-02 9.886562e-01 -3.240380e-02 1.112984e-02 1.108515e-02
2.600000e+09 1.122314e-02 1.150879e-02 9.885789e-01 -3.369392e-02 9.885802e-01 -3.369323e-02 1.118428e-02 1.152245e-02
2.700000e+09 1.128323e-02 1.194471e-02 9.885001e-01 -3.498261e-02 9.885014e-01 -3.498189e-02 1.124072e-02 1.195906e-02
2.800000e+09 1.134543e-02 1.237990e-02 9.884185e-01 -3.627052e-02 9.884197e-01 -3.626976e-02 1.129913e-02 1.239495e-02
2.900000e+09 1.140973e-02 1.281432e-02 9.883341e-01 -3.755760e-02 9.883353e-01 -3.755682e-02 1.135950e-02 1.283011e-02
3.000000e+09 1.147611e-02 1.324797e-02 9.882470e-01 -3.884386e-02 9.882481e-01 -3.884304e-02 1.142182e-02 1.326450e-02
3.100000e+09 1.154455e-02 1.368081e-02 9.881570e-01 -4.012925e-02 9.881582e-01 -4.012841e-02 1.148607e-02 1.369811e-02
3.200000e+09 1.161504e-02 1.411283e-02 9.880644e-01 -4.141376e-02 9.880655e-01 -4.141289e-02 1.155223e-02 1.413092e-02
3.300000e+09 1.168755e-02 1.454401e-02 9.879690e-01 -4.269737e-02 9.879701e-01 -4.269646e-02 1.162028e-02 1.456291e-02
3.400000e+09 1.176208e-02 1.497433e-02 9.878709e-01 -4.398006e-02 9.878720e-01 -4.397912e-02 1.169021e-02 1.499406e-02
3.500000e+09 1.183859e-02 1.540376e-02 9.877702e-01 -4.526180e-02 9.877712e-01 -4.526082e-02 1.176199e-02 1.542435e-02
3.600000e+09 1.191708e-02 1.583229e-02 9.876668e-01 -4.654257e-02 9.876678e-01 -4.654157e-02 1.183561e-02 1.585376e-02
3.700000e+09 1.199752e-02 1.625990e-02 9.875608e-01 -4.782236e-02 9.875617e-01 -4.782132e-02 1.191106e-02 1.628228e-02
3.800000e+09 1.207989e-02 1.668658e-02 9.874521e-01 -4.910114e-02 9.874530e-01 -4.910008e-02 1.198830e-02 1.670988e-02
3.900000e+09 1.216417e-02 1.711230e-02 9.873408e-01 -5.037891e-02 9.873417e-01 -5.037781e-02 1.206733e-02 1.713655e-02
4.000000e+09 1.225035e-02 1.753704e-02 9.872270e-01 -5.165563e-02 9.872278e-01 -5.165450e-02 1.214811e-02 1.756228e-02
4.100000e+09 1.233840e-02 1.796080e-02 9.871106e-01 -5.293130e-02 9.871114e-01 -5.293013e-02 1.223064e-02 1.798704e-02
4.200000e+09 1.242831e-02 1.838355e-02 9.869917e-01 -5.420590e-02 9.869925e-01 -5.420469e-02 1.231489e-02 1.841083e-02
4.300000e+09 1.252005e-02 1.880529e-02 9.868703e-01 -5.547940e-02 9.868710e-01 -5.547817e-02 1.240084e-02 1.883362e-02
4.400000e+09 1.261360e-02 1.922599e-02 9.867464e-01 -5.675181e-02 9.867470e-01 -5.675054e-02 1.248847e-02 1.925541e-02
4.500000e+09 1.270893e-02 1.964564e-02 9.866200e-01 -5.802309e-02 9.866206e-01 -5.802178e-02 1.257777e-02 1.967618e-02
4.600000e+09 1.280604e-02 2.006423e-02 9.864912e-01 -5.929324e-02 9.864918e-01 -5.929190e-02 1.266870e-02 2.009591e-02
4.700000e+09 1.290490e-02 2.048175e-02 9.863599e-01 -6.056225e-02 9.863605e-01 -6.056087e-02 1.276125e-02 2.051460e-02
4.800000e+09 1.300548e-02 2.089817e-02 9.862263e-01 -6.183010e-02 9.862268e-01 -6.182868e-02 1.285539e-02 2.093224e-02
4.900000e+09 1.310777e-02 2.131350e-02 9.860903e-01 -6.309678e-02 9.860908e-01 -6.309533e-02 1.295112e-02 2.134880e-02
5.000000e+09 1.321174e-02 2.172772e-02 9.859519e-01 -6.436227e-02 9.859524e-01 -6.436079e-02 1.304840e-02 2.176429e-02
5.100000e+09 1.331737e-02 2.214082e-02 9.858112e-01 -6.562657e-02 9.858116e-01 -6.562505e-02 1.314721e-02 2.217869e-02
5.200000e+09 1.342465e-02 2.255279e-02 9.856683e-01 -6.688967e-02 9.856686e-01 -6.688811e-02 1.324753e-02 2.259199e-02
5.300000e+09 1.353354e-02 2.296362e-02 9.855230e-01 -6.815156e-02 9.855233e-01 -6.814996e-02 1.334935e-02 2.300418e-02
5.400000e+09 1.364402e-02 2.337329e-02 9.853754e-01 -6.941223e-02 9.853757e-01 -6.941059e-02 1.345263e-02 2.341525e-02
5.500000e+09 1.375609e-02 2.378181e-02 9.852257e-01 -7.067166e-02 9.852259e-01 -7.066999e-02 1.355737e-02 2.382520e-02
5.600000e+09 1.386970e-02 2.418917e-02 9.850737e-01 -7.192986e-02 9.850738e-01 -7.192815e-02 1.366353e-02 2.423402e-02
5.700000e+09 1.398485e-02 2.459535e-02 9.849195e-01 -7.318681e-02 9.849196e-01 -7.318506e-02 1.377109e-02 2.464170e-02
5.800000e+09 1.410150e-02 2.500034e-02 9.847631e-01 -7.444251e-02 9.847632e-01 -7.444072e-02 1.388004e-02 2.504824e-02
5.900000e+09 1.421965e-02 2.540416e-02 9.846046e-01 -7.569696e-02 9.846047e-01 -7.569513e-02 1.399035e-02 2.545362e-02
6.000000e+09 1.433926e-02 2.580678e-02 9.844440e-01 -7.695014e-02 9.844440e-01 -7.694827e-02 1.410201e-02 2.585785e-02
6.100000e+09 1.446031e-02 2.620820e-02 9.842813e-01 -7.820205e-02 9.842812e-01 -7.820014e-02 1.421498e-02 2.626091e-02
6.200000e+09 1.458279e-02 2.660841e-02 9.841165e-01 -7.945268e-02 9.841164e-01 -7.945074e-02 1.432925e-02 2.666281e-02
6.300000e+09 1.470667e-02 2.700742e-02 9.839496e-01 -8.070205e-02 9.839495e-01 -8.070006e-02 1.444480e-02 2.706354e-02
6.400000e+09 1.483193e-02 2.740522e-02 9.837808e-01 -8.195013e-02 9.837806e-01 -8.194810e-02 1.456161e-02 2.746310e-02
6.500000e+09 1.495855e-02 2.780180e-02 9.836099e-01 -8.319693e-02 9.836096e-01 -8.319485e-02 1.467966e-02 2.786148e-02
6.600000e+09 1.508651e-02 2.819717e-02 9.834370e-01 -8.444244e-02 9.834367e-01 -8.444033e-02 1.479892e-02 2.825868e-02
6.700000e+09 1.521578e-02 2.859131e-02 9.832621e-01 -8.568666e-02 9.832618e-01 -8.568451e-02 1.491937e-02 2.865470e-02
6.800000e+09 1.534636e-02 2.898424e-02 9.830853e-01 -8.692960e-02 9.830849e-01 -8.692741e-02 1.504101e-02 2.904953e-02
6.900000e+09 1.547821e-02 2.937593e-02 9.829066e-01 -8.817125e-02 9.829062e-01 -8.816901e-02 1.516379e-02 2.944319e-02
7.000000e+09 1.561131e-02 2.976641e-02 9.827260e-01 -8.941161e-02 9.827255e-01 -8.940933e-02 1.528772e-02 2.983566e-02
7.100000e+09 1.574566e-02 3.015565e-02 9.825435e-01 -9.065068e-02 9.825429e-01 -9.064836e-02 1.541276e-02 3.022694e-02
7.200000e+09 1.588121e-02 3.054367e-02 9.823591e-01 -9.188846e-02 9.823585e-01 -9.188610e-02 1.553889e-02 3.061704e-02
7.300000e+09 1.601797e-02 3.093047e-02 9.821729e-01 -9.312495e-02 9.821723e-01 -9.312255e-02 1.566610e-02 3.100595e-02
7.400000e+09 1.615590e-02 3.131604e-02 9.819848e-01 -9.436016e-02 9.819842e-01 -9.435771e-02 1.579437e-02 3.139369e-02
7.500000e+09 1.629500e-02 3.170038e-02 9.817950e-01 -9.559408e-02 9.817943e-01 -9.559159e-02 1.592368e-02 3.178024e-02
7.600000e+09 1.643523e-02 3.208350e-02 9.816033e-01 -9.682672e-02 9.816026e-01 -9.682419e-02 1.605401e-02 3.216560e-02
7.700000e+09 1.657658e-02 3.246540e-02 9.814100e-01 -9.805808e-02 9.814092e-01 -9.805550e-02 1.618534e-02 3.254980e-02
7.800000e+09 1.671903e-02 3.284608e-02 9.812148e-01 -9.928817e-02 9.812140e-01 -9.928554e-02 1.631766e-02 3.293281e-02
7.900000e+09 1.686256e-02 3.322554e-02 9.810180e-01 -1.005170e-01 9.810171e-01 -1.005143e-01 1.645094e-02 3.331465e-02
8.000000e+09 1.700717e-02 3.360379e-02 9.808194e-01 -1.017445e-01 9.808185e-01 -1.017418e-01 1.658516e-02 3.369532e-02
8.100000e+09 1.715282e-02 3.398082e-02 9.806192e-01 -1.029708e-01 9.806182e-01 -1.029680e-01 1.672032e-02 3.407483e-02
8.200000e+09 1.729950e-02 3.435664e-02 9.804172e-01 -1.041958e-01 9.804162e-01 -1.041930e-01 1.685640e-02 3.445317e-02
8.300000e+09 1.744719e-02 3.473126e-02 9.802137e-01 -1.054196e-01 9.802126e-01 -1.054167e-01 1.699337e-02 3.483035e-02
8.400000e+09 1.759588e-02 3.510468e-02 9.800084e-01 -1.066421e-01 9.800074e-01 -1.066392e-01 1.713122e-02 3.520638e-02
8.500000e+09 1.774555e-02 3.547690e-02 9.798016e-01 -1.078633e-01 9.798005e-01 -1.078604e-01 1.726993e-02 3.558126e-02
8.600000e+09 1.789618e-02 3.584793e-02 9.795932e-01 -1.090834e-01 9.795920e-01 -1.090804e-01 1.740949e-02 3.595499e-02
8.700000e+09 1.804776e-02 3.621777e-02 9.793831e-01 -1.103022e-01 9.793820e-01 -1.102991e-01 1.754989e-02 3.632758e-02
8.800000e+09 1.820027e-02 3.658643e-02 9.791716e-01 -1.115197e-01 9.791703e-01 -1.115167e-01 1.769110e-02 3.669903e-02
8.900000e+09 1.835369e-02 3.695391e-02 9.789584e-01 -1.127361e-01 9.789571e-01 -1.127329e-01 1.783311e-02 3.706936e-02
9.000000e+09 1.850802e-02 3.732022e-02 9.787437e-01 -1.139512e-01 9.787424e-01 -1.139480e-01 1.797591e-02 3.743856e-02
9.100000e+09 1.866323e-02 3.768536e-02 9.785275e-01 -1.151651e-01 9.785262e-01 -1.151619e-01 1.811948e-02 3.780664e-02
9.200000e+09 1.881932e-02 3.804933e-02 9.783098e-01 -1.163778e-01 9.783084e-01 -1.163746e-01 1.826381e-02 3.817362e-02
9.300000e+09 1.897626e-02 3.841216e-02 9.780906e-01 -1.175893e-01 9.780891e-01 -1.175861e-01 1.840888e-02 3.853948e-02
9.400000e+09 1.913404e-02 3.877383e-02 9.778699e-01 -1.187997e-01 9.778684e-01 -1.187963e-01 1.855469e-02 3.890425e-02
9.500000e+09 1.929266e-02 3.913437e-02 9.776477e-01 -1.200088e-01 9.776462e-01 -1.200055e-01 1.870121e-02 3.926793e-02
9.600000e+09 1.945209e-02 3.949377e-02 9.774241e-01 -1.212168e-01 9.774225e-01 -1.212134e-01 1.884843e-02 3.963052e-02
9.700000e+09 1.961232e-02 3.985203e-02 9.771990e-01 -1.224237e-01 9.771974e-01 -1.224202e-01 1.899635e-02 3.999203e-02
9.800000e+09 1.977334e-02 4.020918e-02 9.769725e-01 -1.236293e-01 9.769709e-01 -1.236258e-01 1.914494e-02 4.035247e-02
9.900000e+09 1.993514e-02 4.056521e-02 9.767446e-01 -1.248339e-01 9.767429e-01 -1.248303e-01 1.929421e-02 4.071185e-02
1.000000e+10 2.009771e-02 4.092014e-02 9.765153e-01 -1.260373e-01 9.765136e-01 -1.260337e-01 1.944412e-02 4.107018e-02
1.010000e+10 2.026103e-02 4.127396e-02 9.762846e-01 -1.272395e-01 9.762828e-01 -1.272359e-01 1.959469e-02 4.142745e-02
1.020000e+10 2.042510e-02 4.162669e-02 9.760525e-01 -1.284407e-01 9.760507e-01 -1.284370e-01 1.974588e-02 4.178369e-02
1.030000e+10 2.058989e-02 4.197834e-02 9.758190e-01 -1.296407e-01 9.758172e-01 -1.296370e-01 1.989769e-02 4.213889e-02
1.040000e+10 2.075541e-02 4.232890e-02 9.755842e-01 -1.308396e-01 9.755823e-01 -1.308359e-01 2.005012e-02 4.249307e-02
1.050000e+10 2.092163e-02 4.267840e-02 9.753480e-01 -1.320375e-01 9.753461e-01 -1.320337e-01 2.020314e-02 4.284623e-02
1.060000e+10 2.108856e-02 4.302684e-02 9.751104e-01 -1.332342e-01 9.751085e-01 -1.332304e-01 2.035676e-02 4.319839e-02
1.070000e+10 2.125617e-02 4.337422e-02 9.748716e-01 -1.344299e-01 9.748697e-01 -1.344260e-01 2.051096e-02 4.354954e-02
1.080000e+10 2.142447e-02 4.372055e-02 9.746314e-01 -1.356245e-01 9.746294e-01 -1.356206e-01 2.066573e-02 4.389970e-02
1.090000e+10 2.159343e-02 4.406584e-02 9.743899e-01 -1.368181e-01 9.743879e-01 -1.368141e-01 2.082106e-02 4.424888e-02
1.100000e+10 2.176306e-02 4.441011e-02 9.741471e-01 -1.380106e-01 9.741451e-01 -1.380066e-01 2.097694e-02 4.459708e-02
1.110000e+10 2.193333e-02 4.475335e-02 9.739030e-01 -1.392021e-01 9.739010e-01 -1.391980e-01 2.113337e-02 4.494432e-02
1.120000e+10 2.210426e-02 4.509558e-02 9.736576e-01 -1.403925e-01 9.736555e-01 -1.403884e-01 2.129033e-02 4.529059e-02
1.130000e+10 2.227581e-02 4.543680e-02 9.734110e-01 -1.415820e-01 9.734088e-01 -1.415778e-01 2.144783e-02 4.563592e-02
1.140000e+10 2.244800e-02 4.577702e-02 9.731630e-01 -1.427704e-01 9.731609e-01 -1.427661e-01 2.160584e-02 4.598031e-02
1.150000e+10 2.262080e-02 4.611625e-02 9.729138e-01 -1.439578e-01 9.729116e-01 -1.439535e-01 2.176437e-02 4.632376e-02
1.160000e+10 2.279422e-02 4.645450e-02 9.726633e-01 -1.451442e-01 9.726611e-01 -1.451399e-01 2.192340e-02 4.666629e-02
1.170000e+10 2.296824e-02 4.679178e-02 9.724116e-01 -1.463297e-01 9.724094e-01 -1.463253e-01 2.208293e-02 4.700790e-02
1.180000e+10 2.314286e-02 4.712809e-02 9.721586e-01 -1.475141e-01 9.721564e-01 -1.475097e-01 2.224296e-02 4.734861e-02
1.190000e+10 2.331807e-02 4.746344e-02 9.719044e-01 -1.486976e-01 9.719021e-01 -1.486932e-01 2.240347e-02 4.768841e-02
1.200000e+10 2.349387e-02 4.779785e-02 9.716490e-01 -1.498802e-01 9.716467e-01 -1.498757e-01 2.256446e-02 4.802733e-02
1.210000e+10 2.367024e-02 4.813131e-02 9.713923e-01 -1.510618e-01 9.713899e-01 -1.510572e-01 2.272592e-02 4.836536e-02
1.220000e+10 2.384719e-02 4.846384e-02 9.711344e-01 -1.522424e-01 9.711320e-01 -1.522378e-01 2.288785e-02 4.870252e-02
1.230000e+10 2.402471e-02 4.879544e-02 9.708753e-01 -1.534222e-01 9.708729e-01 -1.534175e-01 2.305025e-02 4.903882e-02
1.240000e+10 2.420278e-02 4.912613e-02 9.706149e-01 -1.546010e-01 9.706125e-01 -1.545963e-01 2.321310e-02 4.937425e-02
1.250000e+10 2.438142e-02 4.945591e-02 9.703534e-01 -1.557789e-01 9.703509e-01 -1.557742e-01 2.337640e-02 4.970884e-02
1.260000e+10 2.456060e-02 4.978479e-02 9.700906e-01 -1.569559e-01 9.700881e-01 -1.569511e-01 2.354016e-02 5.004259e-02
1.270000e+10 2.474034e-02 5.011277e-02 9.698266e-01 -1.581320e-01 9.698241e-01 -1.581272e-01 2.370435e-02 5.037550e-02
1.280000e+10 2.492061e-02 5.043987e-02 9.695615e-01 -1.593072e-01 9.695589e-01 -1.593024e-01 2.386899e-02 5.070759e-02
1.290000e+10 2.510142e-02 5.076609e-02 9.692951e-01 -1.604816e-01 9.692925e-01 -1.604767e-01 2.403406e-02 5.103887e-02
1.300000e+10 2.528277e-02 5.109144e-02 9.690275e-01 -1.616551e-01 9.690249e-01 -1.616501e-01 2.419956e-02 5.136934e-02
1.310000e+10 2.546464e-02 5.141593e-02 9.687588e-01 -1.628277e-01 9.687562e-01 -1.628227e-01 2.436548e-02 5.169900e-02
1.320000e+10 2.564705e-02 5.173956e-02 9.684888e-01 -1.639995e-01 9.684862e-01 -1.639945e-01 2.453184e-02 5.202788e-02
1.330000e+10 2.582997e-02 5.206235e-02 9.682177e-01 -1.651704e-01 9.682151e-01 -1.651654e-01 2.469861e-02 5.235597e-02
1.340000e+10 2.601341e-02 5.238429e-02 9.679454e-01 -1.663405e-01 9.679427e-01 -1.663354e-01 2.486580e-02 5.268328e-02
1.350000e+10 2.619737e-02 5.270541e-02 9.676719e-01 -1.675098e-01 9.676692e-01 -1.675046e-01 2.503340e-02 5.300982e-02
1.360000e+10 2.638185e-02 5.302569e-02 9.673972e-01 -1.686782e-01 9.673945e-01 -1.686730e-01 2.520142e-02 5.333561e-02
1.370000e+10 2.656683e-02 5.334516e-02 9.671214e-01 -1.698459e-01 9.671186e-01 -1.698406e-01 2.536985e-02 5.366063e-02
1.380000e+10 2.675233e-02 5.366382e-02 9.668444e-01 -1.710127e-01 9.668416e-01 -1.710074e-01 2.553868e-02 5.398492e-02
1.390000e+10 2.693832e-02 5.398167e-02 9.665662e-01 -1.721788e-01 9.665634e-01 -1.721734e-01 2.570792e-02 5.430846e-02
1.400000e+10 2.712482e-02 5.429873e-02 9.662868e-01 -1.733440e-01 9.662840e-01 -1.733386e-01 2.587756e-02 5.463127e-02
1.410000e+10 2.731183e-02 5.461499e-02 9.660062e-01 -1.745085e-01 9.660034e-01 -1.745031e-01 2.604760e-02 5.495335e-02
1.420000e+10 2.749933e-02 5.493047e-02 9.657245e-01 -1.756722e-01 9.657217e-01 -1.756667e-01 2.621804e-02 5.527472e-02
1.430000e+10 2.768733e-02 5.524518e-02 9.654416e-01 -1.768351e-01 9.654388e-01 -1.768296e-01 2.638888e-02 5.559537e-02
1.440000e+10 2.787583e-02 5.555911e-02 9.651576e-01 -1.779973e-01 9.651547e-01 -1.779917e-01 2.656012e-02 5.591532e-02
1.450000e+10 2.806482e-02 5.587228e-02 9.648723e-01 -1.791587e-01 9.648694e-01 -1.791531e-01 2.673175e-02 5.623457e-02
1.460000e+10 2.825430e-02 5.618468e-02 9.645859e-01 -1.803193e-01 9.645830e-01 -1.803137e-01 2.690378e-02 5.655313e-02
1.470000e+10 2.844428e-02 5.649634e-02 9.642983e-01 -1.814793e-01 9.642954e-01 -1.814736e-01 2.707619e-02 5.687101e-02
1.480000e+10 2.863474e-02 5.680725e-02 9.640096e-01 -1.826384e-01 9.640066e-01 -1.826328e-01 2.724901e-02 5.718820e-02
1.490000e+10 2.882570e-02 5.711742e-02 9.637197e-01 -1.837969e-01 9.637167e-01 -1.837912e-01 2.742221e-02 5.750473e-02
1.500000e+10 2.901715e-02 5.742685e-02 9.634286e-01 -1.849546e-01 9.634256e-01 -1.849489e-01 2.759580e-02 5.782059e-02
1.510000e+10 2.920908e-02 5.773556e-02 9.631364e-01 -1.861117e-01 9.631333e-01 -1.861058e-01 2.776979e-02 5.813578e-02
1.520000e+10 2.940151e-02 5.804354e-02 9.628429e-01 -1.872680e-01 9.628399e-01 -1.872621e-01 2.794416e-02 5.845033e-02
1.530000e+10 2.959442e-02 5.835080e-02 9.625483e-01 -1.884236e-01 9.625453e-01 -1.884177e-01 2.811893e-02 5.876422e-02
1.540000e+10 2.978782e-02 5.865735e-02 9.622526e-01 -1.895785e-01 9.622495e-01 -1.895725e-01 2.829409e-02 5.907747e-02
1.550000e+10 2.998170e-02 5.896319e-02 9.619556e-01 -1.907327e-01 9.619525e-01 -1.907267e-01 2.846963e-02 5.939009e-02
1.560000e+10 3.017608e-02 5.926834e-02 9.616575e-01 -1.918862e-01 9.616544e-01 -1.918801e-01 2.864557e-02 5.970207e-02
1.570000e+10 3.037094e-02 5.957278e-02 9.613582e-01 -1.930390e-01 9.613551e-01 -1.930329e-01 2.882189e-02 6.001343e-02
1.580000e+10 3.056628e-02 5.987653e-02 9.610577e-01 -1.941911e-01 9.610546e-01 -1.941850e-01 2.899861e-02 6.032416e-02
1.590000e+10 3.076212e-02 6.017959e-02 9.607561e-01 -1.953426e-01 9.607529e-01 -1.953365e-01 2.917572e-02 6.063428e-02
1.600000e+10 3.095844e-02 6.048197e-02 9.604533e-01 -1.964934e-01 9.604501e-01 -1.964872e-01 2.935322e-02 6.094379e-02
1.610000e+10 3.115525e-02 6.078367e-02 9.601493e-01 -1.976435e-01 9.601461e-01 -1.976373e-01 2.953111e-02 6.125269e-02
1.620000e+10 3.135254e-02 6.108470e-02 9.598441e-01 -1.987930e-01 9.598409e-01 -1.987867e-01 2.970939e-02 6.156098e-02
1.630000e+10 3.155033e-02 6.138506e-02 9.595377e-01 -1.999418e-01 9.595345e-01 -1.999355e-01 2.988807e-02 6.186869e-02
1.640000e+10 3.174860e-02 6.168475e-02 9.592301e-01 -2.010900e-01 9.592269e-01 -2.010836e-01 3.006714e-02 6.217579e-02
1.650000e+10 3.194737e-02 6.198378e-02 9.589214e-01 -2.022375e-01 9.589181e-01 -2.022311e-01 3.024661e-02 6.248231e-02
1.660000e+10 3.214662e-02 6.228215e-02 9.586115e-01 -2.033843e-01 9.586082e-01 -2.033779e-01 3.042647e-02 6.278825e-02
