#   Hz   S  RI   R   50
!
0.000000e+00 2.861232e-03 0.000000e+00 9.971446e-01 0.000000e+00 9.971404e-01 0.000000e+00 2.856994e-03 0.000000e+00
1.000000e+08 2.861291e-03 2.104387e-05 9.971445e-01 -2.651177e-04 9.971403e-01 -2.650344e-04 2.857055e-03 2.053303e-05
2.000000e+08 2.861470e-03 4.208556e-05 9.971442e-01 -5.302321e-04 9.971400e-01 -5.300656e-04 2.857238e-03 4.106380e-05
3.000000e+08 2.861767e-03 6.312291e-05 9.971438e-01 -7.953400e-04 9.971395e-01 -7.950907e-04 2.857542e-03 6.159008e-05
4.000000e+08 2.862184e-03 8.415374e-05 9.971431e-01 -1.060438e-03 9.971388e-01 -1.060106e-03 2.857968e-03 8.210962e-05
5.000000e+08 2.862719e-03 1.051759e-04 9.971422e-01 -1.325524e-03 9.971379e-01 -1.325110e-03 2.858516e-03 1.026202e-04
6.000000e+08 2.863373e-03 1.261872e-04 9.971411e-01 -1.590593e-03 9.971369e-01 -1.590097e-03 2.859184e-03 1.231195e-04
7.000000e+08 2.864145e-03 1.471856e-04 9.971398e-01 -1.855642e-03 9.971356e-01 -1.855066e-03 2.859974e-03 1.436055e-04
8.000000e+08 2.865034e-03 1.681688e-04 9.971383e-01 -2.120670e-03 9.971341e-01 -2.120014e-03 2.860884e-03 1.640757e-04
9.000000e+08 2.866041e-03 1.891347e-04 9.971366e-01 -2.385671e-03 9.971325e-01 -2.384936e-03 2.861913e-03 1.845282e-04
1.000000e+09 2.867165e-03 2.100814e-04 9.971347e-01 -2.650644e-03 9.971306e-01 -2.649831e-03 2.863063e-03 2.049606e-04
1.100000e+09 2.868406e-03 2.310065e-04 9.971327e-01 -2.915585e-03 9.971286e-01 -2.914695e-03 2.864331e-03 2.253708e-04
1.200000e+09 2.869762e-03 2.519081e-04 9.971304e-01 -3.180491e-03 9.971264e-01 -3.179526e-03 2.865718e-03 2.457566e-04
1.300000e+09 2.871234e-03 2.727842e-04 9.971279e-01 -3.445358e-03 9.971240e-01 -3.444320e-03 2.867223e-03 2.661160e-04
1.400000e+09 2.872820e-03 2.936325e-04 9.971253e-01 -3.710185e-03 9.971214e-01 -3.709074e-03 2.868844e-03 2.864468e-04
1.500000e+09 2.874520e-03 3.144513e-04 9.971224e-01 -3.974967e-03 9.971186e-01 -3.973785e-03 2.870582e-03 3.067469e-04
1.600000e+09 2.876334e-03 3.352383e-04 9.971194e-01 -4.239703e-03 9.971156e-01 -4.238452e-03 2.872436e-03 3.270143e-04
1.700000e+09 2.878259e-03 3.559918e-04 9.971162e-01 -4.504389e-03 9.971124e-01 -4.503070e-03 2.874404e-03 3.472469e-04
1.800000e+09 2.880297e-03 3.767096e-04 9.971128e-01 -4.769021e-03 9.971091e-01 -4.767638e-03 2.876486e-03 3.674428e-04
1.900000e+09 2.882444e-03 3.973899e-04 9.971092e-01 -5.033599e-03 9.971055e-01 -5.032152e-03 2.878681e-03 3.875998e-04
2.000000e+09 2.884702e-03 4.180309e-04 9.971054e-01 -5.298118e-03 9.971018e-01 -5.296609e-03 2.880988e-03 4.077162e-04
2.100000e+09 2.887068e-03 4.386306e-04 9.971014e-01 -5.562575e-03 9.970979e-01 -5.561008e-03 2.883406e-03 4.277899e-04
2.200000e+09 2.889542e-03 4.591872e-04 9.970972e-01 -5.826970e-03 9.970939e-01 -5.825346e-03 2.885933e-03 4.478191e-04
2.300000e+09 2.892123e-03 4.796989e-04 9.970929e-01 -6.091297e-03 9.970896e-01 -6.089619e-03 2.888569e-03 4.678019e-04
2.400000e+09 2.894809e-03 5.001639e-04 9.970884e-01 -6.355556e-03 9.970852e-01 -6.353826e-03 2.891313e-03 4.877365e-04
2.500000e+09 2.897599e-03 5.205806e-04 9.970837e-01 -6.619744e-03 9.970806e-01 -6.617965e-03 2.894163e-03 5.076211e-04
2.600000e+09 2.900493e-03 5.409472e-04 9.970788e-01 -6.883858e-03 9.970758e-01 -6.882032e-03 2.897118e-03 5.274540e-04
2.700000e+09 2.903488e-03 5.612620e-04 9.970738e-01 -7.147896e-03 9.970708e-01 -7.146025e-03 2.900176e-03 5.472335e-04
2.800000e+09 2.906584e-03 5.815235e-04 9.970686e-01 -7.411855e-03 9.970657e-01 -7.409943e-03 2.903337e-03 5.669579e-04
2.900000e+09 2.909780e-03 6.017301e-04 9.970632e-01 -7.675733e-03 9.970604e-01 -7.673783e-03 2.906599e-03 5.866256e-04
3.000000e+09 2.913074e-03 6.218801e-04 9.970577e-01 -7.939529e-03 9.970549e-01 -7.937543e-03 2.909961e-03 6.062350e-04
3.100000e+09 2.916464e-03 6.419722e-04 9.970519e-01 -8.203240e-03 9.970493e-01 -8.201221e-03 2.913421e-03 6.257846e-04
3.200000e+09 2.919950e-03 6.620048e-04 9.970461e-01 -8.466864e-03 9.970435e-01 -8.464815e-03 2.916977e-03 6.452728e-04
3.300000e+09 2.923530e-03 6.819765e-04 9.970400e-01 -8.730399e-03 9.970376e-01 -8.728323e-03 2.920629e-03 6.646983e-04
3.400000e+09 2.927202e-03 7.018860e-04 9.970338e-01 -8.993843e-03 9.970315e-01 -8.991743e-03 2.924375e-03 6.840596e-04
3.500000e+09 2.930965e-03 7.217319e-04 9.970274e-01 -9.257194e-03 9.970252e-01 -9.255073e-03 2.928213e-03 7.033553e-04
3.600000e+09 2.934818e-03 7.415129e-04 9.970209e-01 -9.520451e-03 9.970188e-01 -9.518312e-03 2.932141e-03 7.225841e-04
3.700000e+09 2.938759e-03 7.612277e-04 9.970142e-01 -9.783612e-03 9.970122e-01 -9.781458e-03 2.936159e-03 7.417449e-04
3.800000e+09 2.942786e-03 7.808753e-04 9.970074e-01 -1.004668e-02 9.970055e-01 -1.004451e-02 2.940264e-03 7.608362e-04
3.900000e+09 2.946899e-03 8.004543e-04 9.970004e-01 -1.030964e-02 9.969986e-01 -1.030747e-02 2.944455e-03 7.798570e-04
4.000000e+09 2.951094e-03 8.199638e-04 9.969933e-01 -1.057250e-02 9.969916e-01 -1.057032e-02 2.948729e-03 7.988062e-04
4.100000e+09 2.955371e-03 8.394026e-04 9.969860e-01 -1.083526e-02 9.969844e-01 -1.083308e-02 2.953087e-03 8.176826e-04
4.200000e+09 2.959729e-03 8.587697e-04 9.969786e-01 -1.109792e-02 9.969771e-01 -1.109574e-02 2.957525e-03 8.364853e-04
4.300000e+09 2.964165e-03 8.780641e-04 9.969710e-01 -1.136048e-02 9.969696e-01 -1.135830e-02 2.962042e-03 8.552132e-04
4.400000e+09 2.968678e-03 8.972849e-04 9.969633e-01 -1.162292e-02 9.969620e-01 -1.162075e-02 2.966637e-03 8.738654e-04
4.500000e+09 2.973266e-03 9.164313e-04 9.969555e-01 -1.188527e-02 9.969543e-01 -1.188311e-02 2.971307e-03 8.924410e-04
4.600000e+09 2.977927e-03 9.355023e-04 9.969475e-01 -1.214750e-02 9.969464e-01 -1.214535e-02 2.976051e-03 9.109392e-04
4.700000e+09 2.982661e-03 9.544973e-04 9.969394e-01 -1.240962e-02 9.969384e-01 -1.240749e-02 2.980867e-03 9.293592e-04
4.800000e+09 2.987465e-03 9.734153e-04 9.969312e-01 -1.267164e-02 9.969303e-01 -1.266953e-02 2.985754e-03 9.477003e-04
4.900000e+09 2.992337e-03 9.922558e-04 9.969228e-01 -1.293355e-02 9.969220e-01 -1.293146e-02 2.990709e-03 9.659618e-04
5.000000e+09 2.997276e-03 1.011018e-03 9.969143e-01 -1.319534e-02 9.969136e-01 -1.319328e-02 2.995731e-03 9.841429e-04
5.100000e+09 3.002280e-03 1.029702e-03 9.969057e-01 -1.345702e-02 9.969051e-01 -1.345499e-02 3.000818e-03 1.002243e-03
5.200000e+09 3.007348e-03 1.048306e-03 9.968970e-01 -1.371859e-02 9.968965e-01 -1.371659e-02 3.005969e-03 1.020262e-03
5.300000e+09 3.012477e-03 1.066830e-03 9.968881e-01 -1.398005e-02 9.968877e-01 -1.397808e-02 3.011181e-03 1.038199e-03
5.400000e+09 3.017667e-03 1.085274e-03 9.968791e-01 -1.424140e-02 9.968789e-01 -1.423947e-02 3.016452e-03 1.056054e-03
5.500000e+09 3.022915e-03 1.103637e-03 9.968700e-01 -1.450263e-02 9.968699e-01 -1.450074e-02 3.021782e-03 1.073825e-03
5.600000e+09 3.028219e-03 1.121919e-03 9.968608e-01 -1.476375e-02 9.968608e-01 -1.476190e-02 3.027168e-03 1.091514e-03
5.700000e+09 3.033579e-03 1.140119e-03 9.968515e-01 -1.502476e-02 9.968516e-01 -1.502295e-02 3.032608e-03 1.109119e-03
5.800000e+09 3.038991e-03 1.158238e-03 9.968421e-01 -1.528565e-02 9.968422e-01 -1.528389e-02 3.038101e-03 1.126640e-03
5.900000e+09 3.044456e-03 1.176274e-03 9.968326e-01 -1.554643e-02 9.968328e-01 -1.554472e-02 3.043645e-03 1.144078e-03
6.000000e+09 3.049970e-03 1.194228e-03 9.968230e-01 -1.580709e-02 9.968233e-01 -1.580544e-02 3.049238e-03 1.161431e-03
6.100000e+09 3.055533e-03 1.212100e-03 9.968133e-01 -1.606764e-02 9.968136e-01 -1.606604e-02 3.054878e-03 1.178700e-03
6.200000e+09 3.061142e-03 1.229889e-03 9.968034e-01 -1.632808e-02 9.968039e-01 -1.632654e-02 3.060565e-03 1.195885e-03
6.300000e+09 3.066796e-03 1.247596e-03 9.967935e-01 -1.658840e-02 9.967941e-01 -1.658692e-02 3.066295e-03 1.212985e-03
6.400000e+09 3.072494e-03 1.265219e-03 9.967835e-01 -1.684861e-02 9.967841e-01 -1.684719e-02 3.072068e-03 1.230001e-03
6.500000e+09 3.078233e-03 1.282760e-03 9.967734e-01 -1.710871e-02 9.967741e-01 -1.710736e-02 3.077881e-03 1.246932e-03
6.600000e+09 3.084013e-03 1.300218e-03 9.967632e-01 -1.736870e-02 9.967640e-01 -1.736741e-02 3.083733e-03 1.263779e-03
6.700000e+09 3.089831e-03 1.317594e-03 9.967529e-01 -1.762857e-02 9.967538e-01 -1.762735e-02 3.089623e-03 1.280541e-03
6.800000e+09 3.095686e-03 1.334887e-03 9.967425e-01 -1.788833e-02 9.967435e-01 -1.788718e-02 3.095549e-03 1.297220e-03
6.900000e+09 3.101577e-03 1.352097e-03 9.967321e-01 -1.814799e-02 9.967331e-01 -1.814691e-02 3.101508e-03 1.313814e-03
7.000000e+09 3.107501e-03 1.369226e-03 9.967215e-01 -1.840753e-02 9.967226e-01 -1.840652e-02 3.107500e-03 1.330325e-03
7.100000e+09 3.113458e-03 1.386272e-03 9.967109e-01 -1.866696e-02 9.967121e-01 -1.866603e-02 3.113524e-03 1.346752e-03
7.200000e+09 3.119445e-03 1.403236e-03 9.967002e-01 -1.892629e-02 9.967015e-01 -1.892543e-02 3.119576e-03 1.363097e-03
7.300000e+09 3.125462e-03 1.420119e-03 9.966895e-01 -1.918550e-02 9.966907e-01 -1.918473e-02 3.125656e-03 1.379358e-03
7.400000e+09 3.131507e-03 1.436921e-03 9.966786e-01 -1.944461e-02 9.966799e-01 -1.944392e-02 3.131763e-03 1.395536e-03
7.500000e+09 3.137578e-03 1.453642e-03 9.966677e-01 -1.970361e-02 9.966691e-01 -1.970300e-02 3.137894e-03 1.411633e-03
7.600000e+09 3.143675e-03 1.470282e-03 9.966567e-01 -1.996251e-02 9.966581e-01 -1.996198e-02 3.144049e-03 1.427648e-03
7.700000e+09 3.149795e-03 1.486842e-03 9.966456e-01 -2.022130e-02 9.966471e-01 -2.022086e-02 3.150226e-03 1.443581e-03
7.800000e+09 3.155937e-03 1.503322e-03 9.966345e-01 -2.047999e-02 9.966360e-01 -2.047963e-02 3.156423e-03 1.459434e-03
7.900000e+09 3.162100e-03 1.519723e-03 9.966233e-01 -2.073858e-02 9.966249e-01 -2.073830e-02 3.162640e-03 1.475206e-03
8.000000e+09 3.168282e-03 1.536045e-03 9.966120e-01 -2.099707e-02 9.966136e-01 -2.099687e-02 3.168874e-03 1.490899e-03
8.100000e+09 3.174483e-03 1.552288e-03 9.966007e-01 -2.125545e-02 9.966023e-01 -2.125534e-02 3.175125e-03 1.506512e-03
8.200000e+09 3.180701e-03 1.568454e-03 9.965893e-01 -2.151374e-02 9.965910e-01 -2.151372e-02 3.181390e-03 1.522046e-03
8.300000e+09 3.186934e-03 1.584543e-03 9.965778e-01 -2.177193e-02 9.965796e-01 -2.177199e-02 3.187670e-03 1.537503e-03
8.400000e+09 3.193182e-03 1.600554e-03 9.965663e-01 -2.203002e-02 9.965681e-01 -2.203017e-02 3.193962e-03 1.552882e-03
8.500000e+09 3.199443e-03 1.616490e-03 9.965547e-01 -2.228802e-02 9.965565e-01 -2.228826e-02 3.200265e-03 1.568184e-03
8.600000e+09 3.205716e-03 1.632350e-03 9.965431e-01 -2.254592e-02 9.965449e-01 -2.254625e-02 3.206578e-03 1.583410e-03
8.700000e+09 3.212000e-03 1.648136e-03 9.965314e-01 -2.280373e-02 9.965333e-01 -2.280415e-02 3.212900e-03 1.598560e-03
8.800000e+09 3.218293e-03 1.663847e-03 9.965197e-01 -2.306145e-02 9.965215e-01 -2.306195e-02 3.219230e-03 1.613636e-03
8.900000e+09 3.224595e-03 1.679484e-03 9.965079e-01 -2.331908e-02 9.965097e-01 -2.331967e-02 3.225566e-03 1.628638e-03
9.000000e+09 3.230905e-03 1.695049e-03 9.964961e-01 -2.357662e-02 9.964979e-01 -2.357729e-02 3.231908e-03 1.643566e-03
9.100000e+09 3.237221e-03 1.710541e-03 9.964842e-01 -2.383407e-02 9.964860e-01 -2.383483e-02 3.238255e-03 1.658422e-03
9.200000e+09 3.243542e-03 1.725962e-03 9.964722e-01 -2.409144e-02 9.964741e-01 -2.409228e-02 3.244604e-03 1.673206e-03
9.300000e+09 3.249868e-03 1.741312e-03 9.964602e-01 -2.434872e-02 9.964621e-01 -2.434965e-02 3.250956e-03 1.687919e-03
9.400000e+09 3.256197e-03 1.756593e-03 9.964482e-01 -2.460592e-02 9.964500e-01 -2.460693e-02 3.257309e-03 1.702562e-03
9.500000e+09 3.262529e-03 1.771803e-03 9.964361e-01 -2.486303e-02 9.964379e-01 -2.486413e-02 3.263663e-03 1.717136e-03
9.600000e+09 3.268862e-03 1.786946e-03 9.964240e-01 -2.512007e-02 9.964258e-01 -2.512125e-02 3.270016e-03 1.731641e-03
9.700000e+09 3.275195e-03 1.802021e-03 9.964118e-01 -2.537702e-02 9.964136e-01 -2.537829e-02 3.276368e-03 1.746078e-03
9.800000e+09 3.281529e-03 1.817029e-03 9.963996e-01 -2.563390e-02 9.964014e-01 -2.563525e-02 3.282717e-03 1.760448e-03
9.900000e+09 3.287861e-03 1.831970e-03 9.963873e-01 -2.589070e-02 9.963891e-01 -2.589213e-02 3.289063e-03 1.774752e-03
1.000000e+10 3.294191e-03 1.846847e-03 9.963750e-01 -2.614743e-02 9.963767e-01 -2.614893e-02 3.295405e-03 1.788992e-03
1.010000e+10 3.300518e-03 1.861659e-03 9.963626e-01 -2.640408e-02 9.963644e-01 -2.640567e-02 3.301742e-03 1.803166e-03
1.020000e+10 3.306842e-03 1.876407e-03 9.963502e-01 -2.666067e-02 9.963519e-01 -2.666232e-02 3.308073e-03 1.817278e-03
1.030000e+10 3.313162e-03 1.891093e-03 9.963378e-01 -2.691718e-02 9.963395e-01 -2.691891e-02 3.314398e-03 1.831327e-03
1.040000e+10 3.319476e-03 1.905716e-03 9.963253e-01 -2.717362e-02 9.963270e-01 -2.717543e-02 3.320716e-03 1.845314e-03
1.050000e+10 3.325785e-03 1.920279e-03 9.963128e-01 -2.743000e-02 9.963144e-01 -2.743187e-02 3.327027e-03 1.859240e-03
1.060000e+10 3.332087e-03 1.934781e-03 9.963002e-01 -2.768631e-02 9.963018e-01 -2.768825e-02 3.333328e-03 1.873107e-03
1.070000e+10 3.338383e-03 1.949223e-03 9.962877e-01 -2.794255e-02 9.962892e-01 -2.794457e-02 3.339621e-03 1.886915e-03
1.080000e+10 3.344670e-03 1.963607e-03 9.962750e-01 -2.819874e-02 9.962765e-01 -2.820082e-02 3.345904e-03 1.900664e-03
1.090000e+10 3.350949e-03 1.977934e-03 9.962623e-01 -2.845486e-02 9.962638e-01 -2.845700e-02 3.352177e-03 1.914356e-03
1.100000e+10 3.357220e-03 1.992203e-03 9.962496e-01 -2.871092e-02 9.962510e-01 -2.871313e-02 3.358439e-03 1.927993e-03
1.110000e+10 3.363480e-03 2.006417e-03 9.962369e-01 -2.896692e-02 9.962382e-01 -2.896919e-02 3.364690e-03 1.941573e-03
1.120000e+10 3.369731e-03 2.020575e-03 9.962241e-01 -2.922287e-02 9.962254e-01 -2.922519e-02 3.370929e-03 1.955100e-03
1.130000e+10 3.375972e-03 2.034679e-03 9.962113e-01 -2.947876e-02 9.962125e-01 -2.948114e-02 3.377155e-03 1.968572e-03
1.140000e+10 3.382201e-03 2.048730e-03 9.961984e-01 -2.973459e-02 9.961996e-01 -2.973703e-02 3.383369e-03 1.981993e-03
1.150000e+10 3.388419e-03 2.062728e-03 9.961855e-01 -2.999037e-02 9.961867e-01 -2.999286e-02 3.389569e-03 1.995361e-03
1.160000e+10 3.394625e-03 2.076674e-03 9.961726e-01 -3.024610e-02 9.961737e-01 -3.024865e-02 3.395756e-03 2.008678e-03
1.170000e+10 3.400819e-03 2.090570e-03 9.961596e-01 -3.050179e-02 9.961606e-01 -3.050437e-02 3.401929e-03 2.021946e-03
1.180000e+10 3.407000e-03 2.104415e-03 9.961466e-01 -3.075742e-02 9.961476e-01 -3.076005e-02 3.408087e-03 2.035164e-03
1.190000e+10 3.413168e-03 2.118212e-03 9.961336e-01 -3.101300e-02 9.961345e-01 -3.101568e-02 3.414231e-03 2.048335e-03
1.200000e+10 3.419323e-03 2.131960e-03 9.961205e-01 -3.126854e-02 9.961213e-01 -3.127126e-02 3.420359e-03 2.061458e-03
1.210000e+10 3.425464e-03 2.145660e-03 9.961074e-01 -3.152403e-02 9.961081e-01 -3.152679e-02 3.426472e-03 2.074534e-03
1.220000e+10 3.431590e-03 2.159314e-03 9.960943e-01 -3.177949e-02 9.960949e-01 -3.178228e-02 3.432569e-03 2.087565e-03
1.230000e+10 3.437703e-03 2.172922e-03 9.960811e-01 -3.203489e-02 9.960817e-01 -3.203772e-02 3.438651e-03 2.100551e-03
1.240000e+10 3.443801e-03 2.186486e-03 9.960679e-01 -3.229026e-02 9.960684e-01 -3.229312e-02 3.444716e-03 2.113494e-03
1.250000e+10 3.449884e-03 2.200005e-03 9.960546e-01 -3.254559e-02 9.960550e-01 -3.254847e-02 3.450765e-03 2.126393e-03
1.260000e+10 3.455951e-03 2.213480e-03 9.960413e-01 -3.280088e-02 9.960417e-01 -3.280379e-02 3.456797e-03 2.139250e-03
1.270000e+10 3.462004e-03 2.226914e-03 9.960280e-01 -3.305613e-02 9.960282e-01 -3.305906e-02 3.462813e-03 2.152066e-03
1.280000e+10 3.468041e-03 2.240305e-03 9.960146e-01 -3.331135e-02 9.960148e-01 -3.331430e-02 3.468812e-03 2.164842e-03
1.290000e+10 3.474062e-03 2.253656e-03 9.960012e-01 -3.356653e-02 9.960013e-01 -3.356950e-02 3.474793e-03 2.177577e-03
1.300000e+10 3.480067e-03 2.266967e-03 9.959878e-01 -3.382168e-02 9.959878e-01 -3.382466e-02 3.480758e-03 2.190274e-03
1.310000e+10 3.486056e-03 2.280238e-03 9.959743e-01 -3.407679e-02 9.959742e-01 -3.407979e-02 3.486705e-03 2.202933e-03
1.320000e+10 3.492029e-03 2.293471e-03 9.959608e-01 -3.433188e-02 9.959606e-01 -3.433488e-02 3.492634e-03 2.215555e-03
1.330000e+10 3.497986e-03 2.306665e-03 9.959473e-01 -3.458693e-02 9.959470e-01 -3.458994e-02 3.498547e-03 2.228140e-03
1.340000e+10 3.503926e-03 2.319823e-03 9.959337e-01 -3.484196e-02 9.959333e-01 -3.484497e-02 3.504441e-03 2.240689e-03
1.350000e+10 3.509850e-03 2.332945e-03 9.959200e-01 -3.509695e-02 9.959196e-01 -3.509997e-02 3.510318e-03 2.253204e-03
1.360000e+10 3.515758e-03 2.346031e-03 9.959064e-01 -3.535192e-02 9.959058e-01 -3.535494e-02 3.516178e-03 2.265684e-03
1.370000e+10 3.521648e-03 2.359082e-03 9.958927e-01 -3.560687e-02 9.958921e-01 -3.560988e-02 3.522020e-03 2.278131e-03
1.380000e+10 3.527522e-03 2.372099e-03 9.958789e-01 -3.586178e-02 9.958782e-01 -3.586479e-02 3.527844e-03 2.290545e-03
1.390000e+10 3.533380e-03 2.385083e-03 9.958651e-01 -3.611668e-02 9.958643e-01 -3.611967e-02 3.533651e-03 2.302927e-03
1.400000e+10 3.539221e-03 2.398034e-03 9.958513e-01 -3.637155e-02 9.958504e-01 -3.637453e-02 3.539440e-03 2.315278e-03
1.410000e+10 3.545045e-03 2.410953e-03 9.958374e-01 -3.662640e-02 9.958365e-01 -3.662937e-02 3.545211e-03 2.327599e-03
1.420000e+10 3.550852e-03 2.423841e-03 9.958235e-01 -3.688122e-02 9.958225e-01 -3.688418e-02 3.550965e-03 2.339889e-03
1.430000e+10 3.556643e-03 2.436698e-03 9.958096e-01 -3.713603e-02 9.958084e-01 -3.713896e-02 3.556702e-03 2.352150e-03
1.440000e+10 3.562417e-03 2.449526e-03 9.957956e-01 -3.739081e-02 9.957944e-01 -3.739373e-02 3.562421e-03 2.364383e-03
1.450000e+10 3.568174e-03 2.462323e-03 9.957816e-01 -3.764558e-02 9.957802e-01 -3.764847e-02 3.568123e-03 2.376588e-03
1.460000e+10 3.573915e-03 2.475093e-03 9.957675e-01 -3.790033e-02 9.957661e-01 -3.790319e-02 3.573808e-03 2.388765e-03
1.470000e+10 3.579640e-03 2.487834e-03 9.957534e-01 -3.815506e-02 9.957519e-01 -3.815789e-02 3.579476e-03 2.400916e-03
1.480000e+10 3.585348e-03 2.500548e-03 9.957392e-01 -3.840978e-02 9.957376e-01 -3.841258e-02 3.585127e-03 2.413041e-03
1.490000e+10 3.591040e-03 2.513235e-03 9.957250e-01 -3.866447e-02 9.957233e-01 -3.866724e-02 3.590761e-03 2.425140e-03
1.500000e+10 3.596716e-03 2.525895e-03 9.957107e-01 -3.891916e-02 9.957090e-01 -3.892189e-02 3.596378e-03 2.437215e-03
1.510000e+10 3.602376e-03 2.538531e-03 9.956964e-01 -3.917383e-02 9.956946e-01 -3.917652e-02 3.601979e-03 2.449266e-03
1.520000e+10 3.608019e-03 2.551141e-03 9.956821e-01 -3.942848e-02 9.956802e-01 -3.943113e-02 3.607564e-03 2.461292e-03
1.530000e+10 3.613647e-03 2.563726e-03 9.956677e-01 -3.968312e-02 9.956657e-01 -3.968573e-02 3.613132e-03 2.473296e-03
1.540000e+10 3.619259e-03 2.576288e-03 9.956533e-01 -3.993775e-02 9.956512e-01 -3.994031e-02 3.618684e-03 2.485277e-03
1.550000e+10 3.624856e-03 2.588826e-03 9.956388e-01 -4.019237e-02 9.956366e-01 -4.019488e-02 3.624221e-03 2.497237e-03
1.560000e+10 3.630437e-03 2.601342e-03 9.956243e-01 -4.044697e-02 9.956220e-01 -4.044944e-02 3.629742e-03 2.509174e-03
1.570000e+10 3.636003e-03 2.613835e-03 9.956097e-01 -4.070157e-02 9.956074e-01 -4.070398e-02 3.635247e-03 2.521091e-03
1.580000e+10 3.641554e-03 2.626306e-03 9.955951e-01 -4.095615e-02 9.955926e-01 -4.095851e-02 3.640737e-03 2.532987e-03
1.590000e+10 3.647089e-03 2.638756e-03 9.955804e-01 -4.121072e-02 9.955779e-01 -4.121303e-02 3.646212e-03 2.544864e-03
1.600000e+10 3.652610e-03 2.651185e-03 9.955657e-01 -4.146528e-02 9.955631e-01 -4.146753e-02 3.651672e-03 2.556720e-03
1.610000e+10 3.658117e-03 2.663594e-03 9.955509e-01 -4.171984e-02 9.955482e-01 -4.172203e-02 3.657118e-03 2.568558e-03
1.620000e+10 3.663609e-03 2.675983e-03 9.955361e-01 -4.197438e-02 9.955333e-01 -4.197651e-02 3.662549e-03 2.580377e-03
1.630000e+10 3.669087e-03 2.688352e-03 9.955212e-01 -4.222892e-02 9.955184e-01 -4.223099e-02 3.667965e-03 2.592178e-03
1.640000e+10 3.674550e-03 2.700703e-03 9.955063e-01 -4.248345e-02 9.955034e-01 -4.248545e-02 3.673368e-03 2.603962e-03
1.650000e+10 3.680000e-03 2.713035e-03 9.954913e-01 -4.273797e-02 9.954883e-01 -4.273991e-02 3.678758e-03 2.615728e-03
1.660000e+10 3.685437e-03 2.725349e-03 9.954762e-01 -4.299249e-02 9.954732e-01 -4.299435e-02 3.684133e-03 2.627477e-03
